# vsim -c tb_top hw_top -wlf vsim.wlf -sv_seed random -solvefaildebug -assertdebug -sva -coverage -voptargs="+acc" -l ./log/vsim.log "+UVM_VERBOSITY=UVM_HIGH" "+UVM_TESTNAME=test_send_N_frame" -sv_lib uvm_dpi -do "coverage save -onexit -assert -code bcefs -directive -cvg coverage.ucdb; log -r /*; run -all; quit" 
# Start time: 19:49:46 on Jan 26,2026
# ** Note: (vsim-3812) Design is being optimized...
# ** Note: (vopt-143) Recognized 1 FSM in module "uart_tx(fast)".
# ** Note: (vopt-143) Recognized 1 FSM in module "uart_rx(fast)".
# //  Questa Sim-64
# //  Version 10.7c linux_x86_64 Aug 17 2018
# //
# //  Copyright 1991-2018 Mentor Graphics Corporation
# //  All Rights Reserved.
# //
# //  QuestaSim and its associated documentation contain trade
# //  secrets and commercial or financial information that are the property of
# //  Mentor Graphics Corporation and are privileged, confidential,
# //  and exempt from disclosure under the Freedom of Information Act,
# //  5 U.S.C. Section 552. Furthermore, this information
# //  is prohibited from disclosure under the Trade Secrets Act,
# //  18 U.S.C. Section 1905.
# //
# Loading sv_std.std
# Loading work.apb_if(fast)
# Loading work.uart_if(fast)
# Loading mtiUvm.uvm_pkg
# Loading work.uart_common_pkg(fast)
# Loading work.uart_pkg(fast)
# Loading work.apb_pkg(fast)
# Loading work.uart_tb_pkg(fast)
# Loading work.tb_top(fast)
# Loading work.hw_top(fast)
# Loading work.apb_if_sv_unit(fast)
# Loading work.apb_if(fast)
# Loading work.uart_if_sv_unit(fast)
# Loading work.uart_if(fast)
# Loading work.uart_DUT_4(fast)
# Loading work.apb_slave(fast)
# Loading work.register_block(fast)
# Loading work.uart_tx(fast)
# Loading work.bclk_gen(fast)
# Loading work.uart_rx(fast)
# Loading mtiUvm.questa_uvm_pkg(fast)
# Loading ./uvm_dpi.so
# Sv_Seed = 3981311918
# coverage save -onexit -assert -code bcefs -directive -cvg coverage.ucdb
#  log -r /*
#  run -all
# ----------------------------------------------------------------
# UVM-1.1d
# (C) 2007-2013 Mentor Graphics Corporation
# (C) 2007-2013 Cadence Design Systems, Inc.
# (C) 2006-2013 Synopsys, Inc.
# (C) 2011-2013 Cypress Semiconductor Corp.
# ----------------------------------------------------------------
# 
#   ***********       IMPORTANT RELEASE NOTES         ************
# 
#   You are using a version of the UVM library that has been compiled
#   with `UVM_NO_DEPRECATED undefined.
#   See http://www.eda.org/svdb/view.php?id=3313 for more details.
# 
#   You are using a version of the UVM library that has been compiled
#   with `UVM_OBJECT_MUST_HAVE_CONSTRUCTOR undefined.
#   See http://www.eda.org/svdb/view.php?id=3770 for more details.
# 
#       (Specify +UVM_NO_RELNOTES to turn off this notice)
# 
# UVM_INFO verilog_src/questa_uvm_pkg-1.2/src/questa_uvm_pkg.sv(215) @ 0: reporter [Questa UVM] QUESTA_UVM-1.2.3
# UVM_INFO verilog_src/questa_uvm_pkg-1.2/src/questa_uvm_pkg.sv(216) @ 0: reporter [Questa UVM]  questa_uvm::init(+struct)
# UVM_INFO @ 0: reporter [RNTST] Running test test_send_N_frame...
# UVM_INFO ../tb/apb_uart_testlib.sv(114) @ 0: uvm_test_top [TEST] 
####======================== SEND N FRAME configured (TX Monitoring Only) ========================#####
# UVM_INFO ../tb/apb_uart_env.sv(17) @ 0: uvm_test_top.env [APB_UART_ENVIRONMENT] The env is being build phase
# UVM_INFO ../uart_uvc/uart_agent.sv(24) @ 0: uvm_test_top.env.uart_uvcc.agent [uart_agent] Agent set to PASSIVE (TX Only monitoring)
# UVM_INFO ../tb/apb_uart_testlib.sv(32) @ 0: uvm_test_top [test_send_N_frame] Printing topology:
# UVM_INFO @ 0: reporter [UVMTOP] UVM testbench topology:
# ------------------------------------------------------------------------
# Name                           Type                     Size  Value     
# ------------------------------------------------------------------------
# uvm_test_top                   test_send_N_frame        -     @476      
#   env                          apb_uart_env             -     @494      
#     apb_uvcc                   apb_uvc                  -     @502      
#       agent                    apb_agent                -     @652      
#         driver                 apb_driver               -     @787      
#           rsp_port             uvm_analysis_port        -     @802      
#           seq_item_port        uvm_seq_item_pull_port   -     @794      
#           num_trans            integral                 32    'h0       
#         monitor                apb_monitor              -     @663      
#           item_collected_port  uvm_analysis_port        -     @670      
#           num_trans_col        integral                 32    'h0       
#         sequencer              apb_sequencer            -     @678      
#           rsp_export           uvm_analysis_export      -     @685      
#           seq_item_export      uvm_seq_item_pull_imp    -     @779      
#           arbitration_queue    array                    0     -         
#           lock_queue           array                    0     -         
#           num_last_reqs        integral                 32    'd1       
#           num_last_rsps        integral                 32    'd1       
#         is_active              uvm_active_passive_enum  1     UVM_ACTIVE
#     scoreboard                 apb_uart_scoreboard      -     @516      
#       apb_port                 uvm_analysis_imp_apb     -     @523      
#       uart_port                uvm_analysis_imp_uart    -     @531      
#     uart_uvcc                  uart_uvc                 -     @509      
#       agent                    uart_agent               -     @825      
#         monitor                uart_monitor             -     @834      
#           item_collected_port  uvm_analysis_port        -     @841      
#     vir_seqr                   uart_virsequencer        -     @539      
#       rsp_export               uvm_analysis_export      -     @546      
#       seq_item_export          uvm_seq_item_pull_imp    -     @640      
#       arbitration_queue        array                    0     -         
#       lock_queue               array                    0     -         
#       num_last_reqs            integral                 32    'd1       
#       num_last_rsps            integral                 32    'd1       
# ------------------------------------------------------------------------
# 
# UVM_INFO verilog_src/questa_uvm_pkg-1.2/src/questa_uvm_pkg.sv(277) @ 0: reporter [Questa UVM] End Of Elaboration
# UVM_INFO ../apb_uvc/apb_driver.sv(22) @ 0: uvm_test_top.env.apb_uvcc.agent.driver [apb_driver] Start of simulation for uvm_test_top.env.apb_uvcc.agent.driver
# UVM_INFO ../apb_uvc/apb_monitor.sv(28) @ 0: uvm_test_top.env.apb_uvcc.agent.monitor [apb_monitor] Start of simulation for uvm_test_top.env.apb_uvcc.agent.monitor
# UVM_INFO ../apb_uvc/apb_sequencer.sv(10) @ 0: uvm_test_top.env.apb_uvcc.agent.sequencer [apb_sequencer] start of simulation for uvm_test_top.env.apb_uvcc.agent.sequencer
# UVM_INFO ../apb_uvc/apb_agent.sv(33) @ 0: uvm_test_top.env.apb_uvcc.agent [apb_agent] Start of simulation for uvm_test_top.env.apb_uvcc.agent
# UVM_INFO ../apb_uvc/apb_uvc.sv(19) @ 0: uvm_test_top.env.apb_uvcc [apb_uvc] Start of simulation for uvm_test_top.env.apb_uvcc
# UVM_INFO ../uart_uvc/uart_agent.sv(45) @ 0: uvm_test_top.env.uart_uvcc.agent [uart_agent] Start of simulation for uvm_test_top.env.uart_uvcc.agent
# UVM_INFO ../uart_uvc/uart_agent.sv(46) @ 0: uvm_test_top.env.uart_uvcc.agent [uart_agent] Agent started in UVM_PASSIVE mode.
# UVM_INFO ../tb/apb_uart_testlib.sv(37) @ 0: uvm_test_top [test_send_N_frame] start of simulation for uvm_test_top
# UVM_INFO ../tb/uart_virseqs.sv(21) @ 0: uvm_test_top.env.vir_seqr@@vseq_send_N_TX [vseq_send_N_TX] raise objection
# UVM_INFO ../tb/uart_virseqs.sv(185) @ 0: uvm_test_top.env.vir_seqr@@vseq_send_N_TX [VSEQ_N] === STARTING TEST: SEND 57 FRAMES ===
# UVM_INFO ../tb/uart_virseqs.sv(188) @ 0: uvm_test_top.env.vir_seqr@@vseq_send_N_TX [VSEQ_N] 
#####========================Executing FRAME 1/57...========================#####
# UVM_INFO ../tb/uart_virseqs.sv(108) @ 0: uvm_test_top.env.vir_seqr@@vseq_send_N_TX.single_tx_vseq [VSEQ] === STARTING  TEST: DUT -> uart UVC ===
# UVM_INFO ../tb/uart_virseqs.sv(66) @ 0: uvm_test_top.env.vir_seqr@@vseq_send_N_TX.single_tx_vseq.config_vseq [VSEQ] Configuring System using shared object from Test...
# UVM_INFO ../apb_uvc/apb_seqs.sv(62) @ 0: uvm_test_top.env.apb_uvcc.agent.sequencer@@apb_seq [APB_WR_SEQ] Writing Config to DUT: 0x0000001c 
#  (DATA_5BIT, PARITY_EN, PARITY_EVEN, STOP_2BIT)
# UVM_INFO ../uart_uvc/uart_monitor.sv(36) @ 100000: uvm_test_top.env.uart_uvcc.agent.monitor [uart_monitor] Monitor started.
# UVM_INFO ../apb_uvc/apb_driver.sv(35) @ 100000: uvm_test_top.env.apb_uvcc.agent.driver [apb_driver] Reset released, APB Driver active
# UVM_INFO ../apb_uvc/apb_monitor.sv(52) @ 150000: uvm_test_top.env.apb_uvcc.agent.monitor [MON] Updating UART Configuration
# UVM_INFO ../apb_uvc/apb_driver.sv(52) @ 150000: uvm_test_top.env.apb_uvcc.agent.driver [apb_driver] APB Transaction:
# --------------------------------------------------------------------------------------------------------
# Name                           Type              Size  Value                                            
# --------------------------------------------------------------------------------------------------------
# req                            apb_transaction   -     @890                                             
#   paddr                        integral          12    'h8                                              
#   pwdata                       integral          32    'h1c                                             
#   pwrite                       integral          1     'h1                                              
#   pstrb                        integral          4     'h1                                              
#   prdata                       integral          32    'h0xxxxxxxx                                      
#   pslverr                      integral          1     'h0X                                             
#   addr_type                    addr_test_type_e  32    ADDR_VALID                                       
#   write_true_flase             write_quality_e   32    WRITE_ADDR_FALSE                                 
#   begin_time                   time              64    110000                                           
#   depth                        int               32    'd2                                              
#   parent sequence (name)       string            7     apb_seq                                          
#   parent sequence (full name)  string            49    uvm_test_top.env.apb_uvcc.agent.sequencer.apb_seq
#   sequencer                    string            41    uvm_test_top.env.apb_uvcc.agent.sequencer        
# --------------------------------------------------------------------------------------------------------
# 
# UVM_INFO ../tb/uart_virseqs.sv(79) @ 150000: uvm_test_top.env.vir_seqr@@vseq_send_N_TX.single_tx_vseq.config_vseq [VSEQ] UART Driver remains IDLE (TX Only Mode)
# UVM_INFO ../tb/uart_virseqs.sv(39) @ 150000: uvm_test_top.env.vir_seqr@@vseq_send_N_TX.single_tx_vseq [VSEQ] 
#####===NUM DATA BIT = DATA_5BIT, NUM STOP BIT = STOP_2BIT, PARITY EN = PARITY_EN, PARITY TYPE = PARITY_EVEN===#####
# UVM_INFO ../tb/uart_virseqs.sv(136) @ 150000: uvm_test_top.env.vir_seqr@@vseq_send_N_TX.single_tx_vseq [VSEQ] 
#####===Calculation: Data=9 bits, Baud=115200, Tbit=8680.56ns===#####
# UVM_INFO ../apb_uvc/apb_seqs.sv(88) @ 150000: uvm_test_top.env.apb_uvcc.agent.sequencer@@vseq_send_N_TX.single_tx_vseq.apb_write_send_seq [send_tx_data_seq] Send TX with data: 0xee
# UVM_ERROR ../tb/apb_uart_scoreboard.sv(232) @ 160000: uvm_test_top.env.scoreboard [SB_CFG_HDL] CFG mismatch!
#   DUT: data_bit_num=0 stop_bit_num=0 parity_en=0 parity_type=0
#   CFG: data_bit_num=0 stop_bit_num=1 parity_en=1 parity_type=1
# UVM_INFO ../apb_uvc/apb_monitor.sv(52) @ 170000: uvm_test_top.env.apb_uvcc.agent.monitor [MON] Updating UART Configuration
# UVM_ERROR ../tb/apb_uart_scoreboard.sv(232) @ 180000: uvm_test_top.env.scoreboard [SB_CFG_HDL] CFG mismatch!
#   DUT: data_bit_num=0 stop_bit_num=0 parity_en=0 parity_type=0
#   CFG: data_bit_num=0 stop_bit_num=1 parity_en=1 parity_type=1
# UVM_INFO ../apb_uvc/apb_driver.sv(52) @ 210000: uvm_test_top.env.apb_uvcc.agent.driver [apb_driver] APB Transaction:
# ---------------------------------------------------------------------------------------------------------------------------------
# Name                           Type              Size  Value                                                                     
# ---------------------------------------------------------------------------------------------------------------------------------
# req                            apb_transaction   -     @960                                                                      
#   paddr                        integral          12    'h0                                                                       
#   pwdata                       integral          32    'hee                                                                      
#   pwrite                       integral          1     'h1                                                                       
#   pstrb                        integral          4     'h1                                                                       
#   prdata                       integral          32    'h0xxxxxxxx                                                               
#   pslverr                      integral          1     'h0X                                                                      
#   addr_type                    addr_test_type_e  32    ADDR_VALID                                                                
#   write_true_flase             write_quality_e   32    WRITE_ADDR_FALSE                                                          
#   begin_time                   time              64    170000                                                                    
#   depth                        int               32    'd4                                                                       
#   parent sequence (name)       string            18    apb_write_send_seq                                                        
#   parent sequence (full name)  string            74    uvm_test_top.env.vir_seqr.vseq_send_N_TX.single_tx_vseq.apb_write_send_seq
#   sequencer                    string            41    uvm_test_top.env.apb_uvcc.agent.sequencer                                 
# ---------------------------------------------------------------------------------------------------------------------------------
# 
# UVM_INFO ../apb_uvc/apb_monitor.sv(51) @ 210000: uvm_test_top.env.apb_uvcc.agent.monitor [MON] Writing TX Data: 0xee
# UVM_INFO ../tb/apb_uart_scoreboard.sv(65) @ 210000: uvm_test_top.env.scoreboard [SB_APB] APB->TXDATA queued: 0xee
# UVM_INFO ../apb_uvc/apb_driver.sv(52) @ 270000: uvm_test_top.env.apb_uvcc.agent.driver [apb_driver] APB Transaction:
# ---------------------------------------------------------------------------------------------------------------------------------
# Name                           Type              Size  Value                                                                     
# ---------------------------------------------------------------------------------------------------------------------------------
# req                            apb_transaction   -     @968                                                                      
#   paddr                        integral          12    'hc                                                                       
#   pwdata                       integral          32    'h1                                                                       
#   pwrite                       integral          1     'h1                                                                       
#   pstrb                        integral          4     'h1                                                                       
#   prdata                       integral          32    'h0xxxxxxxx                                                               
#   pslverr                      integral          1     'h0X                                                                      
#   addr_type                    addr_test_type_e  32    ADDR_VALID                                                                
#   write_true_flase             write_quality_e   32    WRITE_ADDR_TRUE                                                           
#   begin_time                   time              64    230000                                                                    
#   depth                        int               32    'd4                                                                       
#   parent sequence (name)       string            18    apb_write_send_seq                                                        
#   parent sequence (full name)  string            74    uvm_test_top.env.vir_seqr.vseq_send_N_TX.single_tx_vseq.apb_write_send_seq
#   sequencer                    string            41    uvm_test_top.env.apb_uvcc.agent.sequencer                                 
# ---------------------------------------------------------------------------------------------------------------------------------
# 
# UVM_INFO ../apb_uvc/apb_monitor.sv(53) @ 270000: uvm_test_top.env.apb_uvcc.agent.monitor [MON] Start TX Triggered
# UVM_INFO ../apb_uvc/apb_seqs.sv(134) @ 95761000: uvm_test_top.env.apb_uvcc.agent.sequencer@@vseq_send_N_TX.single_tx_vseq.stt_seq [read_status_reg_seq] Reading UART Status Register (0x10)
# UVM_INFO ../apb_uvc/apb_driver.sv(52) @ 95810000: uvm_test_top.env.apb_uvcc.agent.driver [apb_driver] APB Transaction:
# ----------------------------------------------------------------------------------------------------------------------
# Name                           Type              Size  Value                                                          
# ----------------------------------------------------------------------------------------------------------------------
# req                            apb_transaction   -     @988                                                           
#   paddr                        integral          12    'h10                                                           
#   pwdata                       integral          32    'h1a02354b                                                     
#   pwrite                       integral          1     'h0                                                            
#   pstrb                        integral          4     'h0                                                            
#   prdata                       integral          32    'h0                                                            
#   pslverr                      integral          1     'h0X                                                           
#   addr_type                    addr_test_type_e  32    ADDR_RO                                                        
#   write_true_flase             write_quality_e   32    WRITE_ADDR_FALSE                                               
#   begin_time                   time              64    95770000                                                       
#   depth                        int               32    'd4                                                            
#   parent sequence (name)       string            7     stt_seq                                                        
#   parent sequence (full name)  string            63    uvm_test_top.env.vir_seqr.vseq_send_N_TX.single_tx_vseq.stt_seq
#   sequencer                    string            41    uvm_test_top.env.apb_uvcc.agent.sequencer                      
# ----------------------------------------------------------------------------------------------------------------------
# 
# UVM_ERROR ../tb/uart_virseqs.sv(163) @ 95810000: uvm_test_top.env.vir_seqr@@vseq_send_N_TX.single_tx_vseq [VSEQ] Timeout waiting for TX_DONE
# UVM_INFO ../tb/uart_virseqs.sv(167) @ 95810000: uvm_test_top.env.vir_seqr@@vseq_send_N_TX.single_tx_vseq [VSEQ] ===  TEST COMPLETED ===
# UVM_INFO ../tb/uart_virseqs.sv(188) @ 95810000: uvm_test_top.env.vir_seqr@@vseq_send_N_TX [VSEQ_N] 
#####========================Executing FRAME 2/57...========================#####
# UVM_INFO ../tb/uart_virseqs.sv(108) @ 95810000: uvm_test_top.env.vir_seqr@@vseq_send_N_TX.single_tx_vseq [VSEQ] === STARTING  TEST: DUT -> uart UVC ===
# UVM_INFO ../tb/uart_virseqs.sv(66) @ 95810000: uvm_test_top.env.vir_seqr@@vseq_send_N_TX.single_tx_vseq.config_vseq [VSEQ] Configuring System using shared object from Test...
# UVM_INFO ../apb_uvc/apb_seqs.sv(62) @ 95810000: uvm_test_top.env.apb_uvcc.agent.sequencer@@apb_seq [APB_WR_SEQ] Writing Config to DUT: 0x0000001c 
#  (DATA_5BIT, PARITY_EN, PARITY_EVEN, STOP_2BIT)
# UVM_INFO ../apb_uvc/apb_driver.sv(52) @ 95870000: uvm_test_top.env.apb_uvcc.agent.driver [apb_driver] APB Transaction:
# --------------------------------------------------------------------------------------------------------
# Name                           Type              Size  Value                                            
# --------------------------------------------------------------------------------------------------------
# req                            apb_transaction   -     @1010                                            
#   paddr                        integral          12    'h8                                              
#   pwdata                       integral          32    'h1c                                             
#   pwrite                       integral          1     'h1                                              
#   pstrb                        integral          4     'h1                                              
#   prdata                       integral          32    'h0xxxxxxxx                                      
#   pslverr                      integral          1     'h0X                                             
#   addr_type                    addr_test_type_e  32    ADDR_VALID                                       
#   write_true_flase             write_quality_e   32    WRITE_ADDR_TRUE                                  
#   begin_time                   time              64    95830000                                         
#   depth                        int               32    'd2                                              
#   parent sequence (name)       string            7     apb_seq                                          
#   parent sequence (full name)  string            49    uvm_test_top.env.apb_uvcc.agent.sequencer.apb_seq
#   sequencer                    string            41    uvm_test_top.env.apb_uvcc.agent.sequencer        
# --------------------------------------------------------------------------------------------------------
# 
# UVM_INFO ../tb/uart_virseqs.sv(79) @ 95870000: uvm_test_top.env.vir_seqr@@vseq_send_N_TX.single_tx_vseq.config_vseq [VSEQ] UART Driver remains IDLE (TX Only Mode)
# UVM_INFO ../tb/uart_virseqs.sv(39) @ 95870000: uvm_test_top.env.vir_seqr@@vseq_send_N_TX.single_tx_vseq [VSEQ] 
#####===NUM DATA BIT = DATA_5BIT, NUM STOP BIT = STOP_2BIT, PARITY EN = PARITY_EN, PARITY TYPE = PARITY_EVEN===#####
# UVM_INFO ../tb/uart_virseqs.sv(136) @ 95870000: uvm_test_top.env.vir_seqr@@vseq_send_N_TX.single_tx_vseq [VSEQ] 
#####===Calculation: Data=9 bits, Baud=115200, Tbit=8680.56ns===#####
# UVM_INFO ../apb_uvc/apb_seqs.sv(88) @ 95870000: uvm_test_top.env.apb_uvcc.agent.sequencer@@vseq_send_N_TX.single_tx_vseq.apb_write_send_seq [send_tx_data_seq] Send TX with data: 0x41
# UVM_INFO ../apb_uvc/apb_monitor.sv(52) @ 95870000: uvm_test_top.env.apb_uvcc.agent.monitor [MON] Updating UART Configuration
# UVM_ERROR ../tb/apb_uart_scoreboard.sv(232) @ 95880000: uvm_test_top.env.scoreboard [SB_CFG_HDL] CFG mismatch!
#   DUT: data_bit_num=0 stop_bit_num=0 parity_en=0 parity_type=0
#   CFG: data_bit_num=0 stop_bit_num=1 parity_en=1 parity_type=1
# UVM_INFO ../apb_uvc/apb_driver.sv(52) @ 95930000: uvm_test_top.env.apb_uvcc.agent.driver [apb_driver] APB Transaction:
# ---------------------------------------------------------------------------------------------------------------------------------
# Name                           Type              Size  Value                                                                     
# ---------------------------------------------------------------------------------------------------------------------------------
# req                            apb_transaction   -     @1022                                                                     
#   paddr                        integral          12    'h0                                                                       
#   pwdata                       integral          32    'h41                                                                      
#   pwrite                       integral          1     'h1                                                                       
#   pstrb                        integral          4     'h1                                                                       
#   prdata                       integral          32    'h0xxxxxxxx                                                               
#   pslverr                      integral          1     'h0X                                                                      
#   addr_type                    addr_test_type_e  32    ADDR_VALID                                                                
#   write_true_flase             write_quality_e   32    WRITE_ADDR_FALSE                                                          
#   begin_time                   time              64    95890000                                                                  
#   depth                        int               32    'd4                                                                       
#   parent sequence (name)       string            18    apb_write_send_seq                                                        
#   parent sequence (full name)  string            74    uvm_test_top.env.vir_seqr.vseq_send_N_TX.single_tx_vseq.apb_write_send_seq
#   sequencer                    string            41    uvm_test_top.env.apb_uvcc.agent.sequencer                                 
# ---------------------------------------------------------------------------------------------------------------------------------
# 
# UVM_INFO ../apb_uvc/apb_monitor.sv(51) @ 95930000: uvm_test_top.env.apb_uvcc.agent.monitor [MON] Writing TX Data: 0x41
# UVM_INFO ../tb/apb_uart_scoreboard.sv(65) @ 95930000: uvm_test_top.env.scoreboard [SB_APB] APB->TXDATA queued: 0x41
# UVM_INFO ../apb_uvc/apb_driver.sv(52) @ 95990000: uvm_test_top.env.apb_uvcc.agent.driver [apb_driver] APB Transaction:
# ---------------------------------------------------------------------------------------------------------------------------------
# Name                           Type              Size  Value                                                                     
# ---------------------------------------------------------------------------------------------------------------------------------
# req                            apb_transaction   -     @1030                                                                     
#   paddr                        integral          12    'hc                                                                       
#   pwdata                       integral          32    'h1                                                                       
#   pwrite                       integral          1     'h1                                                                       
#   pstrb                        integral          4     'h1                                                                       
#   prdata                       integral          32    'h0xxxxxxxx                                                               
#   pslverr                      integral          1     'h0X                                                                      
#   addr_type                    addr_test_type_e  32    ADDR_VALID                                                                
#   write_true_flase             write_quality_e   32    WRITE_ADDR_FALSE                                                          
#   begin_time                   time              64    95950000                                                                  
#   depth                        int               32    'd4                                                                       
#   parent sequence (name)       string            18    apb_write_send_seq                                                        
#   parent sequence (full name)  string            74    uvm_test_top.env.vir_seqr.vseq_send_N_TX.single_tx_vseq.apb_write_send_seq
#   sequencer                    string            41    uvm_test_top.env.apb_uvcc.agent.sequencer                                 
# ---------------------------------------------------------------------------------------------------------------------------------
# 
# UVM_INFO ../apb_uvc/apb_monitor.sv(53) @ 95990000: uvm_test_top.env.apb_uvcc.agent.monitor [MON] Start TX Triggered
# UVM_INFO ../apb_uvc/apb_seqs.sv(134) @ 191481000: uvm_test_top.env.apb_uvcc.agent.sequencer@@vseq_send_N_TX.single_tx_vseq.stt_seq [read_status_reg_seq] Reading UART Status Register (0x10)
# UVM_INFO ../apb_uvc/apb_driver.sv(52) @ 191530000: uvm_test_top.env.apb_uvcc.agent.driver [apb_driver] APB Transaction:
# ----------------------------------------------------------------------------------------------------------------------
# Name                           Type              Size  Value                                                          
# ----------------------------------------------------------------------------------------------------------------------
# req                            apb_transaction   -     @1050                                                          
#   paddr                        integral          12    'h10                                                           
#   pwdata                       integral          32    'heee0d659                                                     
#   pwrite                       integral          1     'h0                                                            
#   pstrb                        integral          4     'h1                                                            
#   prdata                       integral          32    'h0                                                            
#   pslverr                      integral          1     'h0X                                                           
#   addr_type                    addr_test_type_e  32    ADDR_RO                                                        
#   write_true_flase             write_quality_e   32    WRITE_ADDR_FALSE                                               
#   begin_time                   time              64    191490000                                                      
#   depth                        int               32    'd4                                                            
#   parent sequence (name)       string            7     stt_seq                                                        
#   parent sequence (full name)  string            63    uvm_test_top.env.vir_seqr.vseq_send_N_TX.single_tx_vseq.stt_seq
#   sequencer                    string            41    uvm_test_top.env.apb_uvcc.agent.sequencer                      
# ----------------------------------------------------------------------------------------------------------------------
# 
# UVM_ERROR ../tb/uart_virseqs.sv(163) @ 191530000: uvm_test_top.env.vir_seqr@@vseq_send_N_TX.single_tx_vseq [VSEQ] Timeout waiting for TX_DONE
# UVM_INFO ../tb/uart_virseqs.sv(167) @ 191530000: uvm_test_top.env.vir_seqr@@vseq_send_N_TX.single_tx_vseq [VSEQ] ===  TEST COMPLETED ===
# UVM_INFO ../tb/uart_virseqs.sv(188) @ 191530000: uvm_test_top.env.vir_seqr@@vseq_send_N_TX [VSEQ_N] 
#####========================Executing FRAME 3/57...========================#####
# UVM_INFO ../tb/uart_virseqs.sv(108) @ 191530000: uvm_test_top.env.vir_seqr@@vseq_send_N_TX.single_tx_vseq [VSEQ] === STARTING  TEST: DUT -> uart UVC ===
# UVM_INFO ../tb/uart_virseqs.sv(66) @ 191530000: uvm_test_top.env.vir_seqr@@vseq_send_N_TX.single_tx_vseq.config_vseq [VSEQ] Configuring System using shared object from Test...
# UVM_INFO ../apb_uvc/apb_seqs.sv(62) @ 191530000: uvm_test_top.env.apb_uvcc.agent.sequencer@@apb_seq [APB_WR_SEQ] Writing Config to DUT: 0x0000001c 
#  (DATA_5BIT, PARITY_EN, PARITY_EVEN, STOP_2BIT)
# UVM_INFO ../apb_uvc/apb_driver.sv(52) @ 191590000: uvm_test_top.env.apb_uvcc.agent.driver [apb_driver] APB Transaction:
# --------------------------------------------------------------------------------------------------------
# Name                           Type              Size  Value                                            
# --------------------------------------------------------------------------------------------------------
# req                            apb_transaction   -     @1072                                            
#   paddr                        integral          12    'h8                                              
#   pwdata                       integral          32    'h1c                                             
#   pwrite                       integral          1     'h1                                              
#   pstrb                        integral          4     'h1                                              
#   prdata                       integral          32    'h0xxxxxxxx                                      
#   pslverr                      integral          1     'h0X                                             
#   addr_type                    addr_test_type_e  32    ADDR_VALID                                       
#   write_true_flase             write_quality_e   32    WRITE_ADDR_FALSE                                 
#   begin_time                   time              64    191550000                                        
#   depth                        int               32    'd2                                              
#   parent sequence (name)       string            7     apb_seq                                          
#   parent sequence (full name)  string            49    uvm_test_top.env.apb_uvcc.agent.sequencer.apb_seq
#   sequencer                    string            41    uvm_test_top.env.apb_uvcc.agent.sequencer        
# --------------------------------------------------------------------------------------------------------
# 
# UVM_INFO ../tb/uart_virseqs.sv(79) @ 191590000: uvm_test_top.env.vir_seqr@@vseq_send_N_TX.single_tx_vseq.config_vseq [VSEQ] UART Driver remains IDLE (TX Only Mode)
# UVM_INFO ../tb/uart_virseqs.sv(39) @ 191590000: uvm_test_top.env.vir_seqr@@vseq_send_N_TX.single_tx_vseq [VSEQ] 
#####===NUM DATA BIT = DATA_5BIT, NUM STOP BIT = STOP_2BIT, PARITY EN = PARITY_EN, PARITY TYPE = PARITY_EVEN===#####
# UVM_INFO ../tb/uart_virseqs.sv(136) @ 191590000: uvm_test_top.env.vir_seqr@@vseq_send_N_TX.single_tx_vseq [VSEQ] 
#####===Calculation: Data=9 bits, Baud=115200, Tbit=8680.56ns===#####
# UVM_INFO ../apb_uvc/apb_seqs.sv(88) @ 191590000: uvm_test_top.env.apb_uvcc.agent.sequencer@@vseq_send_N_TX.single_tx_vseq.apb_write_send_seq [send_tx_data_seq] Send TX with data: 0x28
# UVM_INFO ../apb_uvc/apb_monitor.sv(52) @ 191590000: uvm_test_top.env.apb_uvcc.agent.monitor [MON] Updating UART Configuration
# UVM_ERROR ../tb/apb_uart_scoreboard.sv(232) @ 191600000: uvm_test_top.env.scoreboard [SB_CFG_HDL] CFG mismatch!
#   DUT: data_bit_num=0 stop_bit_num=0 parity_en=0 parity_type=0
#   CFG: data_bit_num=0 stop_bit_num=1 parity_en=1 parity_type=1
# UVM_INFO ../apb_uvc/apb_driver.sv(52) @ 191650000: uvm_test_top.env.apb_uvcc.agent.driver [apb_driver] APB Transaction:
# ---------------------------------------------------------------------------------------------------------------------------------
# Name                           Type              Size  Value                                                                     
# ---------------------------------------------------------------------------------------------------------------------------------
# req                            apb_transaction   -     @1084                                                                     
#   paddr                        integral          12    'h0                                                                       
#   pwdata                       integral          32    'h28                                                                      
#   pwrite                       integral          1     'h1                                                                       
#   pstrb                        integral          4     'h1                                                                       
#   prdata                       integral          32    'h0xxxxxxxx                                                               
#   pslverr                      integral          1     'h0X                                                                      
#   addr_type                    addr_test_type_e  32    ADDR_VALID                                                                
#   write_true_flase             write_quality_e   32    WRITE_ADDR_TRUE                                                           
#   begin_time                   time              64    191610000                                                                 
#   depth                        int               32    'd4                                                                       
#   parent sequence (name)       string            18    apb_write_send_seq                                                        
#   parent sequence (full name)  string            74    uvm_test_top.env.vir_seqr.vseq_send_N_TX.single_tx_vseq.apb_write_send_seq
#   sequencer                    string            41    uvm_test_top.env.apb_uvcc.agent.sequencer                                 
# ---------------------------------------------------------------------------------------------------------------------------------
# 
# UVM_INFO ../apb_uvc/apb_monitor.sv(51) @ 191650000: uvm_test_top.env.apb_uvcc.agent.monitor [MON] Writing TX Data: 0x28
# UVM_INFO ../tb/apb_uart_scoreboard.sv(65) @ 191650000: uvm_test_top.env.scoreboard [SB_APB] APB->TXDATA queued: 0x28
# UVM_INFO ../apb_uvc/apb_driver.sv(52) @ 191710000: uvm_test_top.env.apb_uvcc.agent.driver [apb_driver] APB Transaction:
# ---------------------------------------------------------------------------------------------------------------------------------
# Name                           Type              Size  Value                                                                     
# ---------------------------------------------------------------------------------------------------------------------------------
# req                            apb_transaction   -     @1092                                                                     
#   paddr                        integral          12    'hc                                                                       
#   pwdata                       integral          32    'h1                                                                       
#   pwrite                       integral          1     'h1                                                                       
#   pstrb                        integral          4     'h1                                                                       
#   prdata                       integral          32    'h0xxxxxxxx                                                               
#   pslverr                      integral          1     'h0X                                                                      
#   addr_type                    addr_test_type_e  32    ADDR_VALID                                                                
#   write_true_flase             write_quality_e   32    WRITE_ADDR_FALSE                                                          
#   begin_time                   time              64    191670000                                                                 
#   depth                        int               32    'd4                                                                       
#   parent sequence (name)       string            18    apb_write_send_seq                                                        
#   parent sequence (full name)  string            74    uvm_test_top.env.vir_seqr.vseq_send_N_TX.single_tx_vseq.apb_write_send_seq
#   sequencer                    string            41    uvm_test_top.env.apb_uvcc.agent.sequencer                                 
# ---------------------------------------------------------------------------------------------------------------------------------
# 
# UVM_INFO ../apb_uvc/apb_monitor.sv(53) @ 191710000: uvm_test_top.env.apb_uvcc.agent.monitor [MON] Start TX Triggered
# UVM_INFO ../apb_uvc/apb_seqs.sv(134) @ 287201000: uvm_test_top.env.apb_uvcc.agent.sequencer@@vseq_send_N_TX.single_tx_vseq.stt_seq [read_status_reg_seq] Reading UART Status Register (0x10)
# UVM_INFO ../apb_uvc/apb_driver.sv(52) @ 287250000: uvm_test_top.env.apb_uvcc.agent.driver [apb_driver] APB Transaction:
# ----------------------------------------------------------------------------------------------------------------------
# Name                           Type              Size  Value                                                          
# ----------------------------------------------------------------------------------------------------------------------
# req                            apb_transaction   -     @1112                                                          
#   paddr                        integral          12    'h10                                                           
#   pwdata                       integral          32    'h9f84ed58                                                     
#   pwrite                       integral          1     'h0                                                            
#   pstrb                        integral          4     'h1                                                            
#   prdata                       integral          32    'h0                                                            
#   pslverr                      integral          1     'h0X                                                           
#   addr_type                    addr_test_type_e  32    ADDR_RO                                                        
#   write_true_flase             write_quality_e   32    WRITE_ADDR_TRUE                                                
#   begin_time                   time              64    287210000                                                      
#   depth                        int               32    'd4                                                            
#   parent sequence (name)       string            7     stt_seq                                                        
#   parent sequence (full name)  string            63    uvm_test_top.env.vir_seqr.vseq_send_N_TX.single_tx_vseq.stt_seq
#   sequencer                    string            41    uvm_test_top.env.apb_uvcc.agent.sequencer                      
# ----------------------------------------------------------------------------------------------------------------------
# 
# UVM_ERROR ../tb/uart_virseqs.sv(163) @ 287250000: uvm_test_top.env.vir_seqr@@vseq_send_N_TX.single_tx_vseq [VSEQ] Timeout waiting for TX_DONE
# UVM_INFO ../tb/uart_virseqs.sv(167) @ 287250000: uvm_test_top.env.vir_seqr@@vseq_send_N_TX.single_tx_vseq [VSEQ] ===  TEST COMPLETED ===
# UVM_INFO ../tb/uart_virseqs.sv(188) @ 287250000: uvm_test_top.env.vir_seqr@@vseq_send_N_TX [VSEQ_N] 
#####========================Executing FRAME 4/57...========================#####
# UVM_INFO ../tb/uart_virseqs.sv(108) @ 287250000: uvm_test_top.env.vir_seqr@@vseq_send_N_TX.single_tx_vseq [VSEQ] === STARTING  TEST: DUT -> uart UVC ===
# UVM_INFO ../tb/uart_virseqs.sv(66) @ 287250000: uvm_test_top.env.vir_seqr@@vseq_send_N_TX.single_tx_vseq.config_vseq [VSEQ] Configuring System using shared object from Test...
# UVM_INFO ../apb_uvc/apb_seqs.sv(62) @ 287250000: uvm_test_top.env.apb_uvcc.agent.sequencer@@apb_seq [APB_WR_SEQ] Writing Config to DUT: 0x0000001c 
#  (DATA_5BIT, PARITY_EN, PARITY_EVEN, STOP_2BIT)
# UVM_INFO ../apb_uvc/apb_driver.sv(52) @ 287310000: uvm_test_top.env.apb_uvcc.agent.driver [apb_driver] APB Transaction:
# --------------------------------------------------------------------------------------------------------
# Name                           Type              Size  Value                                            
# --------------------------------------------------------------------------------------------------------
# req                            apb_transaction   -     @1134                                            
#   paddr                        integral          12    'h8                                              
#   pwdata                       integral          32    'h1c                                             
#   pwrite                       integral          1     'h1                                              
#   pstrb                        integral          4     'h1                                              
#   prdata                       integral          32    'h0xxxxxxxx                                      
#   pslverr                      integral          1     'h0X                                             
#   addr_type                    addr_test_type_e  32    ADDR_VALID                                       
#   write_true_flase             write_quality_e   32    WRITE_ADDR_FALSE                                 
#   begin_time                   time              64    287270000                                        
#   depth                        int               32    'd2                                              
#   parent sequence (name)       string            7     apb_seq                                          
#   parent sequence (full name)  string            49    uvm_test_top.env.apb_uvcc.agent.sequencer.apb_seq
#   sequencer                    string            41    uvm_test_top.env.apb_uvcc.agent.sequencer        
# --------------------------------------------------------------------------------------------------------
# 
# UVM_INFO ../tb/uart_virseqs.sv(79) @ 287310000: uvm_test_top.env.vir_seqr@@vseq_send_N_TX.single_tx_vseq.config_vseq [VSEQ] UART Driver remains IDLE (TX Only Mode)
# UVM_INFO ../tb/uart_virseqs.sv(39) @ 287310000: uvm_test_top.env.vir_seqr@@vseq_send_N_TX.single_tx_vseq [VSEQ] 
#####===NUM DATA BIT = DATA_5BIT, NUM STOP BIT = STOP_2BIT, PARITY EN = PARITY_EN, PARITY TYPE = PARITY_EVEN===#####
# UVM_INFO ../tb/uart_virseqs.sv(136) @ 287310000: uvm_test_top.env.vir_seqr@@vseq_send_N_TX.single_tx_vseq [VSEQ] 
#####===Calculation: Data=9 bits, Baud=115200, Tbit=8680.56ns===#####
# UVM_INFO ../apb_uvc/apb_seqs.sv(88) @ 287310000: uvm_test_top.env.apb_uvcc.agent.sequencer@@vseq_send_N_TX.single_tx_vseq.apb_write_send_seq [send_tx_data_seq] Send TX with data: 0x33
# UVM_INFO ../apb_uvc/apb_monitor.sv(52) @ 287310000: uvm_test_top.env.apb_uvcc.agent.monitor [MON] Updating UART Configuration
# UVM_ERROR ../tb/apb_uart_scoreboard.sv(232) @ 287320000: uvm_test_top.env.scoreboard [SB_CFG_HDL] CFG mismatch!
#   DUT: data_bit_num=0 stop_bit_num=0 parity_en=0 parity_type=0
#   CFG: data_bit_num=0 stop_bit_num=1 parity_en=1 parity_type=1
# UVM_INFO ../apb_uvc/apb_driver.sv(52) @ 287370000: uvm_test_top.env.apb_uvcc.agent.driver [apb_driver] APB Transaction:
# ---------------------------------------------------------------------------------------------------------------------------------
# Name                           Type              Size  Value                                                                     
# ---------------------------------------------------------------------------------------------------------------------------------
# req                            apb_transaction   -     @1146                                                                     
#   paddr                        integral          12    'h0                                                                       
#   pwdata                       integral          32    'h33                                                                      
#   pwrite                       integral          1     'h1                                                                       
#   pstrb                        integral          4     'h1                                                                       
#   prdata                       integral          32    'h0xxxxxxxx                                                               
#   pslverr                      integral          1     'h0X                                                                      
#   addr_type                    addr_test_type_e  32    ADDR_VALID                                                                
#   write_true_flase             write_quality_e   32    WRITE_ADDR_TRUE                                                           
#   begin_time                   time              64    287330000                                                                 
#   depth                        int               32    'd4                                                                       
#   parent sequence (name)       string            18    apb_write_send_seq                                                        
#   parent sequence (full name)  string            74    uvm_test_top.env.vir_seqr.vseq_send_N_TX.single_tx_vseq.apb_write_send_seq
#   sequencer                    string            41    uvm_test_top.env.apb_uvcc.agent.sequencer                                 
# ---------------------------------------------------------------------------------------------------------------------------------
# 
# UVM_INFO ../apb_uvc/apb_monitor.sv(51) @ 287370000: uvm_test_top.env.apb_uvcc.agent.monitor [MON] Writing TX Data: 0x33
# UVM_INFO ../tb/apb_uart_scoreboard.sv(65) @ 287370000: uvm_test_top.env.scoreboard [SB_APB] APB->TXDATA queued: 0x33
# UVM_INFO ../apb_uvc/apb_driver.sv(52) @ 287430000: uvm_test_top.env.apb_uvcc.agent.driver [apb_driver] APB Transaction:
# ---------------------------------------------------------------------------------------------------------------------------------
# Name                           Type              Size  Value                                                                     
# ---------------------------------------------------------------------------------------------------------------------------------
# req                            apb_transaction   -     @1154                                                                     
#   paddr                        integral          12    'hc                                                                       
#   pwdata                       integral          32    'h1                                                                       
#   pwrite                       integral          1     'h1                                                                       
#   pstrb                        integral          4     'h1                                                                       
#   prdata                       integral          32    'h0xxxxxxxx                                                               
#   pslverr                      integral          1     'h0X                                                                      
#   addr_type                    addr_test_type_e  32    ADDR_VALID                                                                
#   write_true_flase             write_quality_e   32    WRITE_ADDR_TRUE                                                           
#   begin_time                   time              64    287390000                                                                 
#   depth                        int               32    'd4                                                                       
#   parent sequence (name)       string            18    apb_write_send_seq                                                        
#   parent sequence (full name)  string            74    uvm_test_top.env.vir_seqr.vseq_send_N_TX.single_tx_vseq.apb_write_send_seq
#   sequencer                    string            41    uvm_test_top.env.apb_uvcc.agent.sequencer                                 
# ---------------------------------------------------------------------------------------------------------------------------------
# 
# UVM_INFO ../apb_uvc/apb_monitor.sv(53) @ 287430000: uvm_test_top.env.apb_uvcc.agent.monitor [MON] Start TX Triggered
# UVM_INFO ../apb_uvc/apb_seqs.sv(134) @ 382921000: uvm_test_top.env.apb_uvcc.agent.sequencer@@vseq_send_N_TX.single_tx_vseq.stt_seq [read_status_reg_seq] Reading UART Status Register (0x10)
# UVM_INFO ../apb_uvc/apb_driver.sv(52) @ 382970000: uvm_test_top.env.apb_uvcc.agent.driver [apb_driver] APB Transaction:
# ----------------------------------------------------------------------------------------------------------------------
# Name                           Type              Size  Value                                                          
# ----------------------------------------------------------------------------------------------------------------------
# req                            apb_transaction   -     @1174                                                          
#   paddr                        integral          12    'h10                                                           
#   pwdata                       integral          32    'hbbc299e3                                                     
#   pwrite                       integral          1     'h0                                                            
#   pstrb                        integral          4     'h1                                                            
#   prdata                       integral          32    'h0                                                            
#   pslverr                      integral          1     'h0X                                                           
#   addr_type                    addr_test_type_e  32    ADDR_RO                                                        
#   write_true_flase             write_quality_e   32    WRITE_ADDR_FALSE                                               
#   begin_time                   time              64    382930000                                                      
#   depth                        int               32    'd4                                                            
#   parent sequence (name)       string            7     stt_seq                                                        
#   parent sequence (full name)  string            63    uvm_test_top.env.vir_seqr.vseq_send_N_TX.single_tx_vseq.stt_seq
#   sequencer                    string            41    uvm_test_top.env.apb_uvcc.agent.sequencer                      
# ----------------------------------------------------------------------------------------------------------------------
# 
# UVM_ERROR ../tb/uart_virseqs.sv(163) @ 382970000: uvm_test_top.env.vir_seqr@@vseq_send_N_TX.single_tx_vseq [VSEQ] Timeout waiting for TX_DONE
# UVM_INFO ../tb/uart_virseqs.sv(167) @ 382970000: uvm_test_top.env.vir_seqr@@vseq_send_N_TX.single_tx_vseq [VSEQ] ===  TEST COMPLETED ===
# UVM_INFO ../tb/uart_virseqs.sv(188) @ 382970000: uvm_test_top.env.vir_seqr@@vseq_send_N_TX [VSEQ_N] 
#####========================Executing FRAME 5/57...========================#####
# UVM_INFO ../tb/uart_virseqs.sv(108) @ 382970000: uvm_test_top.env.vir_seqr@@vseq_send_N_TX.single_tx_vseq [VSEQ] === STARTING  TEST: DUT -> uart UVC ===
# UVM_INFO ../tb/uart_virseqs.sv(66) @ 382970000: uvm_test_top.env.vir_seqr@@vseq_send_N_TX.single_tx_vseq.config_vseq [VSEQ] Configuring System using shared object from Test...
# UVM_INFO ../apb_uvc/apb_seqs.sv(62) @ 382970000: uvm_test_top.env.apb_uvcc.agent.sequencer@@apb_seq [APB_WR_SEQ] Writing Config to DUT: 0x0000001c 
#  (DATA_5BIT, PARITY_EN, PARITY_EVEN, STOP_2BIT)
# UVM_INFO ../apb_uvc/apb_driver.sv(52) @ 383030000: uvm_test_top.env.apb_uvcc.agent.driver [apb_driver] APB Transaction:
# --------------------------------------------------------------------------------------------------------
# Name                           Type              Size  Value                                            
# --------------------------------------------------------------------------------------------------------
# req                            apb_transaction   -     @1196                                            
#   paddr                        integral          12    'h8                                              
#   pwdata                       integral          32    'h1c                                             
#   pwrite                       integral          1     'h1                                              
#   pstrb                        integral          4     'h1                                              
#   prdata                       integral          32    'h0xxxxxxxx                                      
#   pslverr                      integral          1     'h0X                                             
#   addr_type                    addr_test_type_e  32    ADDR_VALID                                       
#   write_true_flase             write_quality_e   32    WRITE_ADDR_TRUE                                  
#   begin_time                   time              64    382990000                                        
#   depth                        int               32    'd2                                              
#   parent sequence (name)       string            7     apb_seq                                          
#   parent sequence (full name)  string            49    uvm_test_top.env.apb_uvcc.agent.sequencer.apb_seq
#   sequencer                    string            41    uvm_test_top.env.apb_uvcc.agent.sequencer        
# --------------------------------------------------------------------------------------------------------
# 
# UVM_INFO ../tb/uart_virseqs.sv(79) @ 383030000: uvm_test_top.env.vir_seqr@@vseq_send_N_TX.single_tx_vseq.config_vseq [VSEQ] UART Driver remains IDLE (TX Only Mode)
# UVM_INFO ../tb/uart_virseqs.sv(39) @ 383030000: uvm_test_top.env.vir_seqr@@vseq_send_N_TX.single_tx_vseq [VSEQ] 
#####===NUM DATA BIT = DATA_5BIT, NUM STOP BIT = STOP_2BIT, PARITY EN = PARITY_EN, PARITY TYPE = PARITY_EVEN===#####
# UVM_INFO ../tb/uart_virseqs.sv(136) @ 383030000: uvm_test_top.env.vir_seqr@@vseq_send_N_TX.single_tx_vseq [VSEQ] 
#####===Calculation: Data=9 bits, Baud=115200, Tbit=8680.56ns===#####
# UVM_INFO ../apb_uvc/apb_seqs.sv(88) @ 383030000: uvm_test_top.env.apb_uvcc.agent.sequencer@@vseq_send_N_TX.single_tx_vseq.apb_write_send_seq [send_tx_data_seq] Send TX with data: 0x4
# UVM_INFO ../apb_uvc/apb_monitor.sv(52) @ 383030000: uvm_test_top.env.apb_uvcc.agent.monitor [MON] Updating UART Configuration
# UVM_ERROR ../tb/apb_uart_scoreboard.sv(232) @ 383040000: uvm_test_top.env.scoreboard [SB_CFG_HDL] CFG mismatch!
#   DUT: data_bit_num=0 stop_bit_num=0 parity_en=0 parity_type=0
#   CFG: data_bit_num=0 stop_bit_num=1 parity_en=1 parity_type=1
# UVM_INFO ../apb_uvc/apb_driver.sv(52) @ 383090000: uvm_test_top.env.apb_uvcc.agent.driver [apb_driver] APB Transaction:
# ---------------------------------------------------------------------------------------------------------------------------------
# Name                           Type              Size  Value                                                                     
# ---------------------------------------------------------------------------------------------------------------------------------
# req                            apb_transaction   -     @1208                                                                     
#   paddr                        integral          12    'h0                                                                       
#   pwdata                       integral          32    'h4                                                                       
#   pwrite                       integral          1     'h1                                                                       
#   pstrb                        integral          4     'h1                                                                       
#   prdata                       integral          32    'h0xxxxxxxx                                                               
#   pslverr                      integral          1     'h0X                                                                      
#   addr_type                    addr_test_type_e  32    ADDR_VALID                                                                
#   write_true_flase             write_quality_e   32    WRITE_ADDR_TRUE                                                           
#   begin_time                   time              64    383050000                                                                 
#   depth                        int               32    'd4                                                                       
#   parent sequence (name)       string            18    apb_write_send_seq                                                        
#   parent sequence (full name)  string            74    uvm_test_top.env.vir_seqr.vseq_send_N_TX.single_tx_vseq.apb_write_send_seq
#   sequencer                    string            41    uvm_test_top.env.apb_uvcc.agent.sequencer                                 
# ---------------------------------------------------------------------------------------------------------------------------------
# 
# UVM_INFO ../apb_uvc/apb_monitor.sv(51) @ 383090000: uvm_test_top.env.apb_uvcc.agent.monitor [MON] Writing TX Data: 0x04
# UVM_INFO ../tb/apb_uart_scoreboard.sv(65) @ 383090000: uvm_test_top.env.scoreboard [SB_APB] APB->TXDATA queued: 0x04
# UVM_INFO ../apb_uvc/apb_driver.sv(52) @ 383150000: uvm_test_top.env.apb_uvcc.agent.driver [apb_driver] APB Transaction:
# ---------------------------------------------------------------------------------------------------------------------------------
# Name                           Type              Size  Value                                                                     
# ---------------------------------------------------------------------------------------------------------------------------------
# req                            apb_transaction   -     @1216                                                                     
#   paddr                        integral          12    'hc                                                                       
#   pwdata                       integral          32    'h1                                                                       
#   pwrite                       integral          1     'h1                                                                       
#   pstrb                        integral          4     'h1                                                                       
#   prdata                       integral          32    'h0xxxxxxxx                                                               
#   pslverr                      integral          1     'h0X                                                                      
#   addr_type                    addr_test_type_e  32    ADDR_VALID                                                                
#   write_true_flase             write_quality_e   32    WRITE_ADDR_FALSE                                                          
#   begin_time                   time              64    383110000                                                                 
#   depth                        int               32    'd4                                                                       
#   parent sequence (name)       string            18    apb_write_send_seq                                                        
#   parent sequence (full name)  string            74    uvm_test_top.env.vir_seqr.vseq_send_N_TX.single_tx_vseq.apb_write_send_seq
#   sequencer                    string            41    uvm_test_top.env.apb_uvcc.agent.sequencer                                 
# ---------------------------------------------------------------------------------------------------------------------------------
# 
# UVM_INFO ../apb_uvc/apb_monitor.sv(53) @ 383150000: uvm_test_top.env.apb_uvcc.agent.monitor [MON] Start TX Triggered
# UVM_INFO ../apb_uvc/apb_seqs.sv(134) @ 478641000: uvm_test_top.env.apb_uvcc.agent.sequencer@@vseq_send_N_TX.single_tx_vseq.stt_seq [read_status_reg_seq] Reading UART Status Register (0x10)
# UVM_INFO ../apb_uvc/apb_driver.sv(52) @ 478690000: uvm_test_top.env.apb_uvcc.agent.driver [apb_driver] APB Transaction:
# ----------------------------------------------------------------------------------------------------------------------
# Name                           Type              Size  Value                                                          
# ----------------------------------------------------------------------------------------------------------------------
# req                            apb_transaction   -     @1236                                                          
#   paddr                        integral          12    'h10                                                           
#   pwdata                       integral          32    'h2fe12676                                                     
#   pwrite                       integral          1     'h0                                                            
#   pstrb                        integral          4     'h0                                                            
#   prdata                       integral          32    'h0                                                            
#   pslverr                      integral          1     'h0X                                                           
#   addr_type                    addr_test_type_e  32    ADDR_RO                                                        
#   write_true_flase             write_quality_e   32    WRITE_ADDR_FALSE                                               
#   begin_time                   time              64    478650000                                                      
#   depth                        int               32    'd4                                                            
#   parent sequence (name)       string            7     stt_seq                                                        
#   parent sequence (full name)  string            63    uvm_test_top.env.vir_seqr.vseq_send_N_TX.single_tx_vseq.stt_seq
#   sequencer                    string            41    uvm_test_top.env.apb_uvcc.agent.sequencer                      
# ----------------------------------------------------------------------------------------------------------------------
# 
# UVM_ERROR ../tb/uart_virseqs.sv(163) @ 478690000: uvm_test_top.env.vir_seqr@@vseq_send_N_TX.single_tx_vseq [VSEQ] Timeout waiting for TX_DONE
# UVM_INFO ../tb/uart_virseqs.sv(167) @ 478690000: uvm_test_top.env.vir_seqr@@vseq_send_N_TX.single_tx_vseq [VSEQ] ===  TEST COMPLETED ===
# UVM_INFO ../tb/uart_virseqs.sv(188) @ 478690000: uvm_test_top.env.vir_seqr@@vseq_send_N_TX [VSEQ_N] 
#####========================Executing FRAME 6/57...========================#####
# UVM_INFO ../tb/uart_virseqs.sv(108) @ 478690000: uvm_test_top.env.vir_seqr@@vseq_send_N_TX.single_tx_vseq [VSEQ] === STARTING  TEST: DUT -> uart UVC ===
# UVM_INFO ../tb/uart_virseqs.sv(66) @ 478690000: uvm_test_top.env.vir_seqr@@vseq_send_N_TX.single_tx_vseq.config_vseq [VSEQ] Configuring System using shared object from Test...
# UVM_INFO ../apb_uvc/apb_seqs.sv(62) @ 478690000: uvm_test_top.env.apb_uvcc.agent.sequencer@@apb_seq [APB_WR_SEQ] Writing Config to DUT: 0x0000001c 
#  (DATA_5BIT, PARITY_EN, PARITY_EVEN, STOP_2BIT)
# UVM_INFO ../apb_uvc/apb_driver.sv(52) @ 478750000: uvm_test_top.env.apb_uvcc.agent.driver [apb_driver] APB Transaction:
# --------------------------------------------------------------------------------------------------------
# Name                           Type              Size  Value                                            
# --------------------------------------------------------------------------------------------------------
# req                            apb_transaction   -     @1258                                            
#   paddr                        integral          12    'h8                                              
#   pwdata                       integral          32    'h1c                                             
#   pwrite                       integral          1     'h1                                              
#   pstrb                        integral          4     'h1                                              
#   prdata                       integral          32    'h0xxxxxxxx                                      
#   pslverr                      integral          1     'h0X                                             
#   addr_type                    addr_test_type_e  32    ADDR_VALID                                       
#   write_true_flase             write_quality_e   32    WRITE_ADDR_FALSE                                 
#   begin_time                   time              64    478710000                                        
#   depth                        int               32    'd2                                              
#   parent sequence (name)       string            7     apb_seq                                          
#   parent sequence (full name)  string            49    uvm_test_top.env.apb_uvcc.agent.sequencer.apb_seq
#   sequencer                    string            41    uvm_test_top.env.apb_uvcc.agent.sequencer        
# --------------------------------------------------------------------------------------------------------
# 
# UVM_INFO ../tb/uart_virseqs.sv(79) @ 478750000: uvm_test_top.env.vir_seqr@@vseq_send_N_TX.single_tx_vseq.config_vseq [VSEQ] UART Driver remains IDLE (TX Only Mode)
# UVM_INFO ../tb/uart_virseqs.sv(39) @ 478750000: uvm_test_top.env.vir_seqr@@vseq_send_N_TX.single_tx_vseq [VSEQ] 
#####===NUM DATA BIT = DATA_5BIT, NUM STOP BIT = STOP_2BIT, PARITY EN = PARITY_EN, PARITY TYPE = PARITY_EVEN===#####
# UVM_INFO ../tb/uart_virseqs.sv(136) @ 478750000: uvm_test_top.env.vir_seqr@@vseq_send_N_TX.single_tx_vseq [VSEQ] 
#####===Calculation: Data=9 bits, Baud=115200, Tbit=8680.56ns===#####
# UVM_INFO ../apb_uvc/apb_seqs.sv(88) @ 478750000: uvm_test_top.env.apb_uvcc.agent.sequencer@@vseq_send_N_TX.single_tx_vseq.apb_write_send_seq [send_tx_data_seq] Send TX with data: 0x40
# UVM_INFO ../apb_uvc/apb_monitor.sv(52) @ 478750000: uvm_test_top.env.apb_uvcc.agent.monitor [MON] Updating UART Configuration
# UVM_ERROR ../tb/apb_uart_scoreboard.sv(232) @ 478760000: uvm_test_top.env.scoreboard [SB_CFG_HDL] CFG mismatch!
#   DUT: data_bit_num=0 stop_bit_num=0 parity_en=0 parity_type=0
#   CFG: data_bit_num=0 stop_bit_num=1 parity_en=1 parity_type=1
# UVM_INFO ../apb_uvc/apb_driver.sv(52) @ 478810000: uvm_test_top.env.apb_uvcc.agent.driver [apb_driver] APB Transaction:
# ---------------------------------------------------------------------------------------------------------------------------------
# Name                           Type              Size  Value                                                                     
# ---------------------------------------------------------------------------------------------------------------------------------
# req                            apb_transaction   -     @1270                                                                     
#   paddr                        integral          12    'h0                                                                       
#   pwdata                       integral          32    'h40                                                                      
#   pwrite                       integral          1     'h1                                                                       
#   pstrb                        integral          4     'h1                                                                       
#   prdata                       integral          32    'h0xxxxxxxx                                                               
#   pslverr                      integral          1     'h0X                                                                      
#   addr_type                    addr_test_type_e  32    ADDR_VALID                                                                
#   write_true_flase             write_quality_e   32    WRITE_ADDR_FALSE                                                          
#   begin_time                   time              64    478770000                                                                 
#   depth                        int               32    'd4                                                                       
#   parent sequence (name)       string            18    apb_write_send_seq                                                        
#   parent sequence (full name)  string            74    uvm_test_top.env.vir_seqr.vseq_send_N_TX.single_tx_vseq.apb_write_send_seq
#   sequencer                    string            41    uvm_test_top.env.apb_uvcc.agent.sequencer                                 
# ---------------------------------------------------------------------------------------------------------------------------------
# 
# UVM_INFO ../apb_uvc/apb_monitor.sv(51) @ 478810000: uvm_test_top.env.apb_uvcc.agent.monitor [MON] Writing TX Data: 0x40
# UVM_INFO ../tb/apb_uart_scoreboard.sv(65) @ 478810000: uvm_test_top.env.scoreboard [SB_APB] APB->TXDATA queued: 0x40
# UVM_INFO ../apb_uvc/apb_driver.sv(52) @ 478870000: uvm_test_top.env.apb_uvcc.agent.driver [apb_driver] APB Transaction:
# ---------------------------------------------------------------------------------------------------------------------------------
# Name                           Type              Size  Value                                                                     
# ---------------------------------------------------------------------------------------------------------------------------------
# req                            apb_transaction   -     @1278                                                                     
#   paddr                        integral          12    'hc                                                                       
#   pwdata                       integral          32    'h1                                                                       
#   pwrite                       integral          1     'h1                                                                       
#   pstrb                        integral          4     'h1                                                                       
#   prdata                       integral          32    'h0xxxxxxxx                                                               
#   pslverr                      integral          1     'h0X                                                                      
#   addr_type                    addr_test_type_e  32    ADDR_VALID                                                                
#   write_true_flase             write_quality_e   32    WRITE_ADDR_FALSE                                                          
#   begin_time                   time              64    478830000                                                                 
#   depth                        int               32    'd4                                                                       
#   parent sequence (name)       string            18    apb_write_send_seq                                                        
#   parent sequence (full name)  string            74    uvm_test_top.env.vir_seqr.vseq_send_N_TX.single_tx_vseq.apb_write_send_seq
#   sequencer                    string            41    uvm_test_top.env.apb_uvcc.agent.sequencer                                 
# ---------------------------------------------------------------------------------------------------------------------------------
# 
# UVM_INFO ../apb_uvc/apb_monitor.sv(53) @ 478870000: uvm_test_top.env.apb_uvcc.agent.monitor [MON] Start TX Triggered
# UVM_INFO ../apb_uvc/apb_seqs.sv(134) @ 574361000: uvm_test_top.env.apb_uvcc.agent.sequencer@@vseq_send_N_TX.single_tx_vseq.stt_seq [read_status_reg_seq] Reading UART Status Register (0x10)
# UVM_INFO ../apb_uvc/apb_driver.sv(52) @ 574410000: uvm_test_top.env.apb_uvcc.agent.driver [apb_driver] APB Transaction:
# ----------------------------------------------------------------------------------------------------------------------
# Name                           Type              Size  Value                                                          
# ----------------------------------------------------------------------------------------------------------------------
# req                            apb_transaction   -     @1298                                                          
#   paddr                        integral          12    'h10                                                           
#   pwdata                       integral          32    'h1468bf82                                                     
#   pwrite                       integral          1     'h0                                                            
#   pstrb                        integral          4     'h1                                                            
#   prdata                       integral          32    'h0                                                            
#   pslverr                      integral          1     'h0X                                                           
#   addr_type                    addr_test_type_e  32    ADDR_RO                                                        
#   write_true_flase             write_quality_e   32    WRITE_ADDR_TRUE                                                
#   begin_time                   time              64    574370000                                                      
#   depth                        int               32    'd4                                                            
#   parent sequence (name)       string            7     stt_seq                                                        
#   parent sequence (full name)  string            63    uvm_test_top.env.vir_seqr.vseq_send_N_TX.single_tx_vseq.stt_seq
#   sequencer                    string            41    uvm_test_top.env.apb_uvcc.agent.sequencer                      
# ----------------------------------------------------------------------------------------------------------------------
# 
# UVM_ERROR ../tb/uart_virseqs.sv(163) @ 574410000: uvm_test_top.env.vir_seqr@@vseq_send_N_TX.single_tx_vseq [VSEQ] Timeout waiting for TX_DONE
# UVM_INFO ../tb/uart_virseqs.sv(167) @ 574410000: uvm_test_top.env.vir_seqr@@vseq_send_N_TX.single_tx_vseq [VSEQ] ===  TEST COMPLETED ===
# UVM_INFO ../tb/uart_virseqs.sv(188) @ 574410000: uvm_test_top.env.vir_seqr@@vseq_send_N_TX [VSEQ_N] 
#####========================Executing FRAME 7/57...========================#####
# UVM_INFO ../tb/uart_virseqs.sv(108) @ 574410000: uvm_test_top.env.vir_seqr@@vseq_send_N_TX.single_tx_vseq [VSEQ] === STARTING  TEST: DUT -> uart UVC ===
# UVM_INFO ../tb/uart_virseqs.sv(66) @ 574410000: uvm_test_top.env.vir_seqr@@vseq_send_N_TX.single_tx_vseq.config_vseq [VSEQ] Configuring System using shared object from Test...
# UVM_INFO ../apb_uvc/apb_seqs.sv(62) @ 574410000: uvm_test_top.env.apb_uvcc.agent.sequencer@@apb_seq [APB_WR_SEQ] Writing Config to DUT: 0x0000001c 
#  (DATA_5BIT, PARITY_EN, PARITY_EVEN, STOP_2BIT)
# UVM_INFO ../apb_uvc/apb_driver.sv(52) @ 574470000: uvm_test_top.env.apb_uvcc.agent.driver [apb_driver] APB Transaction:
# --------------------------------------------------------------------------------------------------------
# Name                           Type              Size  Value                                            
# --------------------------------------------------------------------------------------------------------
# req                            apb_transaction   -     @1320                                            
#   paddr                        integral          12    'h8                                              
#   pwdata                       integral          32    'h1c                                             
#   pwrite                       integral          1     'h1                                              
#   pstrb                        integral          4     'h1                                              
#   prdata                       integral          32    'h0xxxxxxxx                                      
#   pslverr                      integral          1     'h0X                                             
#   addr_type                    addr_test_type_e  32    ADDR_VALID                                       
#   write_true_flase             write_quality_e   32    WRITE_ADDR_FALSE                                 
#   begin_time                   time              64    574430000                                        
#   depth                        int               32    'd2                                              
#   parent sequence (name)       string            7     apb_seq                                          
#   parent sequence (full name)  string            49    uvm_test_top.env.apb_uvcc.agent.sequencer.apb_seq
#   sequencer                    string            41    uvm_test_top.env.apb_uvcc.agent.sequencer        
# --------------------------------------------------------------------------------------------------------
# 
# UVM_INFO ../tb/uart_virseqs.sv(79) @ 574470000: uvm_test_top.env.vir_seqr@@vseq_send_N_TX.single_tx_vseq.config_vseq [VSEQ] UART Driver remains IDLE (TX Only Mode)
# UVM_INFO ../tb/uart_virseqs.sv(39) @ 574470000: uvm_test_top.env.vir_seqr@@vseq_send_N_TX.single_tx_vseq [VSEQ] 
#####===NUM DATA BIT = DATA_5BIT, NUM STOP BIT = STOP_2BIT, PARITY EN = PARITY_EN, PARITY TYPE = PARITY_EVEN===#####
# UVM_INFO ../tb/uart_virseqs.sv(136) @ 574470000: uvm_test_top.env.vir_seqr@@vseq_send_N_TX.single_tx_vseq [VSEQ] 
#####===Calculation: Data=9 bits, Baud=115200, Tbit=8680.56ns===#####
# UVM_INFO ../apb_uvc/apb_seqs.sv(88) @ 574470000: uvm_test_top.env.apb_uvcc.agent.sequencer@@vseq_send_N_TX.single_tx_vseq.apb_write_send_seq [send_tx_data_seq] Send TX with data: 0x8f
# UVM_INFO ../apb_uvc/apb_monitor.sv(52) @ 574470000: uvm_test_top.env.apb_uvcc.agent.monitor [MON] Updating UART Configuration
# UVM_ERROR ../tb/apb_uart_scoreboard.sv(232) @ 574480000: uvm_test_top.env.scoreboard [SB_CFG_HDL] CFG mismatch!
#   DUT: data_bit_num=0 stop_bit_num=0 parity_en=0 parity_type=0
#   CFG: data_bit_num=0 stop_bit_num=1 parity_en=1 parity_type=1
# UVM_INFO ../apb_uvc/apb_driver.sv(52) @ 574530000: uvm_test_top.env.apb_uvcc.agent.driver [apb_driver] APB Transaction:
# ---------------------------------------------------------------------------------------------------------------------------------
# Name                           Type              Size  Value                                                                     
# ---------------------------------------------------------------------------------------------------------------------------------
# req                            apb_transaction   -     @1332                                                                     
#   paddr                        integral          12    'h0                                                                       
#   pwdata                       integral          32    'h8f                                                                      
#   pwrite                       integral          1     'h1                                                                       
#   pstrb                        integral          4     'h1                                                                       
#   prdata                       integral          32    'h0xxxxxxxx                                                               
#   pslverr                      integral          1     'h0X                                                                      
#   addr_type                    addr_test_type_e  32    ADDR_VALID                                                                
#   write_true_flase             write_quality_e   32    WRITE_ADDR_TRUE                                                           
#   begin_time                   time              64    574490000                                                                 
#   depth                        int               32    'd4                                                                       
#   parent sequence (name)       string            18    apb_write_send_seq                                                        
#   parent sequence (full name)  string            74    uvm_test_top.env.vir_seqr.vseq_send_N_TX.single_tx_vseq.apb_write_send_seq
#   sequencer                    string            41    uvm_test_top.env.apb_uvcc.agent.sequencer                                 
# ---------------------------------------------------------------------------------------------------------------------------------
# 
# UVM_INFO ../apb_uvc/apb_monitor.sv(51) @ 574530000: uvm_test_top.env.apb_uvcc.agent.monitor [MON] Writing TX Data: 0x8f
# UVM_INFO ../tb/apb_uart_scoreboard.sv(65) @ 574530000: uvm_test_top.env.scoreboard [SB_APB] APB->TXDATA queued: 0x8f
# UVM_INFO ../apb_uvc/apb_driver.sv(52) @ 574590000: uvm_test_top.env.apb_uvcc.agent.driver [apb_driver] APB Transaction:
# ---------------------------------------------------------------------------------------------------------------------------------
# Name                           Type              Size  Value                                                                     
# ---------------------------------------------------------------------------------------------------------------------------------
# req                            apb_transaction   -     @1340                                                                     
#   paddr                        integral          12    'hc                                                                       
#   pwdata                       integral          32    'h1                                                                       
#   pwrite                       integral          1     'h1                                                                       
#   pstrb                        integral          4     'h1                                                                       
#   prdata                       integral          32    'h0xxxxxxxx                                                               
#   pslverr                      integral          1     'h0X                                                                      
#   addr_type                    addr_test_type_e  32    ADDR_VALID                                                                
#   write_true_flase             write_quality_e   32    WRITE_ADDR_TRUE                                                           
#   begin_time                   time              64    574550000                                                                 
#   depth                        int               32    'd4                                                                       
#   parent sequence (name)       string            18    apb_write_send_seq                                                        
#   parent sequence (full name)  string            74    uvm_test_top.env.vir_seqr.vseq_send_N_TX.single_tx_vseq.apb_write_send_seq
#   sequencer                    string            41    uvm_test_top.env.apb_uvcc.agent.sequencer                                 
# ---------------------------------------------------------------------------------------------------------------------------------
# 
# UVM_INFO ../apb_uvc/apb_monitor.sv(53) @ 574590000: uvm_test_top.env.apb_uvcc.agent.monitor [MON] Start TX Triggered
# UVM_INFO ../apb_uvc/apb_seqs.sv(134) @ 670081000: uvm_test_top.env.apb_uvcc.agent.sequencer@@vseq_send_N_TX.single_tx_vseq.stt_seq [read_status_reg_seq] Reading UART Status Register (0x10)
# UVM_INFO ../apb_uvc/apb_driver.sv(52) @ 670130000: uvm_test_top.env.apb_uvcc.agent.driver [apb_driver] APB Transaction:
# ----------------------------------------------------------------------------------------------------------------------
# Name                           Type              Size  Value                                                          
# ----------------------------------------------------------------------------------------------------------------------
# req                            apb_transaction   -     @1360                                                          
#   paddr                        integral          12    'h10                                                           
#   pwdata                       integral          32    'h218f19d9                                                     
#   pwrite                       integral          1     'h0                                                            
#   pstrb                        integral          4     'h0                                                            
#   prdata                       integral          32    'h0                                                            
#   pslverr                      integral          1     'h0X                                                           
#   addr_type                    addr_test_type_e  32    ADDR_RO                                                        
#   write_true_flase             write_quality_e   32    WRITE_ADDR_TRUE                                                
#   begin_time                   time              64    670090000                                                      
#   depth                        int               32    'd4                                                            
#   parent sequence (name)       string            7     stt_seq                                                        
#   parent sequence (full name)  string            63    uvm_test_top.env.vir_seqr.vseq_send_N_TX.single_tx_vseq.stt_seq
#   sequencer                    string            41    uvm_test_top.env.apb_uvcc.agent.sequencer                      
# ----------------------------------------------------------------------------------------------------------------------
# 
# UVM_ERROR ../tb/uart_virseqs.sv(163) @ 670130000: uvm_test_top.env.vir_seqr@@vseq_send_N_TX.single_tx_vseq [VSEQ] Timeout waiting for TX_DONE
# UVM_INFO ../tb/uart_virseqs.sv(167) @ 670130000: uvm_test_top.env.vir_seqr@@vseq_send_N_TX.single_tx_vseq [VSEQ] ===  TEST COMPLETED ===
# UVM_INFO ../tb/uart_virseqs.sv(188) @ 670130000: uvm_test_top.env.vir_seqr@@vseq_send_N_TX [VSEQ_N] 
#####========================Executing FRAME 8/57...========================#####
# UVM_INFO ../tb/uart_virseqs.sv(108) @ 670130000: uvm_test_top.env.vir_seqr@@vseq_send_N_TX.single_tx_vseq [VSEQ] === STARTING  TEST: DUT -> uart UVC ===
# UVM_INFO ../tb/uart_virseqs.sv(66) @ 670130000: uvm_test_top.env.vir_seqr@@vseq_send_N_TX.single_tx_vseq.config_vseq [VSEQ] Configuring System using shared object from Test...
# UVM_INFO ../apb_uvc/apb_seqs.sv(62) @ 670130000: uvm_test_top.env.apb_uvcc.agent.sequencer@@apb_seq [APB_WR_SEQ] Writing Config to DUT: 0x0000001c 
#  (DATA_5BIT, PARITY_EN, PARITY_EVEN, STOP_2BIT)
# UVM_INFO ../apb_uvc/apb_driver.sv(52) @ 670190000: uvm_test_top.env.apb_uvcc.agent.driver [apb_driver] APB Transaction:
# --------------------------------------------------------------------------------------------------------
# Name                           Type              Size  Value                                            
# --------------------------------------------------------------------------------------------------------
# req                            apb_transaction   -     @1382                                            
#   paddr                        integral          12    'h8                                              
#   pwdata                       integral          32    'h1c                                             
#   pwrite                       integral          1     'h1                                              
#   pstrb                        integral          4     'h1                                              
#   prdata                       integral          32    'h0xxxxxxxx                                      
#   pslverr                      integral          1     'h0X                                             
#   addr_type                    addr_test_type_e  32    ADDR_VALID                                       
#   write_true_flase             write_quality_e   32    WRITE_ADDR_TRUE                                  
#   begin_time                   time              64    670150000                                        
#   depth                        int               32    'd2                                              
#   parent sequence (name)       string            7     apb_seq                                          
#   parent sequence (full name)  string            49    uvm_test_top.env.apb_uvcc.agent.sequencer.apb_seq
#   sequencer                    string            41    uvm_test_top.env.apb_uvcc.agent.sequencer        
# --------------------------------------------------------------------------------------------------------
# 
# UVM_INFO ../tb/uart_virseqs.sv(79) @ 670190000: uvm_test_top.env.vir_seqr@@vseq_send_N_TX.single_tx_vseq.config_vseq [VSEQ] UART Driver remains IDLE (TX Only Mode)
# UVM_INFO ../tb/uart_virseqs.sv(39) @ 670190000: uvm_test_top.env.vir_seqr@@vseq_send_N_TX.single_tx_vseq [VSEQ] 
#####===NUM DATA BIT = DATA_5BIT, NUM STOP BIT = STOP_2BIT, PARITY EN = PARITY_EN, PARITY TYPE = PARITY_EVEN===#####
# UVM_INFO ../tb/uart_virseqs.sv(136) @ 670190000: uvm_test_top.env.vir_seqr@@vseq_send_N_TX.single_tx_vseq [VSEQ] 
#####===Calculation: Data=9 bits, Baud=115200, Tbit=8680.56ns===#####
# UVM_INFO ../apb_uvc/apb_seqs.sv(88) @ 670190000: uvm_test_top.env.apb_uvcc.agent.sequencer@@vseq_send_N_TX.single_tx_vseq.apb_write_send_seq [send_tx_data_seq] Send TX with data: 0x82
# UVM_INFO ../apb_uvc/apb_monitor.sv(52) @ 670190000: uvm_test_top.env.apb_uvcc.agent.monitor [MON] Updating UART Configuration
# UVM_ERROR ../tb/apb_uart_scoreboard.sv(232) @ 670200000: uvm_test_top.env.scoreboard [SB_CFG_HDL] CFG mismatch!
#   DUT: data_bit_num=0 stop_bit_num=0 parity_en=0 parity_type=0
#   CFG: data_bit_num=0 stop_bit_num=1 parity_en=1 parity_type=1
# UVM_INFO ../apb_uvc/apb_driver.sv(52) @ 670250000: uvm_test_top.env.apb_uvcc.agent.driver [apb_driver] APB Transaction:
# ---------------------------------------------------------------------------------------------------------------------------------
# Name                           Type              Size  Value                                                                     
# ---------------------------------------------------------------------------------------------------------------------------------
# req                            apb_transaction   -     @1394                                                                     
#   paddr                        integral          12    'h0                                                                       
#   pwdata                       integral          32    'h82                                                                      
#   pwrite                       integral          1     'h1                                                                       
#   pstrb                        integral          4     'h1                                                                       
#   prdata                       integral          32    'h0xxxxxxxx                                                               
#   pslverr                      integral          1     'h0X                                                                      
#   addr_type                    addr_test_type_e  32    ADDR_VALID                                                                
#   write_true_flase             write_quality_e   32    WRITE_ADDR_TRUE                                                           
#   begin_time                   time              64    670210000                                                                 
#   depth                        int               32    'd4                                                                       
#   parent sequence (name)       string            18    apb_write_send_seq                                                        
#   parent sequence (full name)  string            74    uvm_test_top.env.vir_seqr.vseq_send_N_TX.single_tx_vseq.apb_write_send_seq
#   sequencer                    string            41    uvm_test_top.env.apb_uvcc.agent.sequencer                                 
# ---------------------------------------------------------------------------------------------------------------------------------
# 
# UVM_INFO ../apb_uvc/apb_monitor.sv(51) @ 670250000: uvm_test_top.env.apb_uvcc.agent.monitor [MON] Writing TX Data: 0x82
# UVM_INFO ../tb/apb_uart_scoreboard.sv(65) @ 670250000: uvm_test_top.env.scoreboard [SB_APB] APB->TXDATA queued: 0x82
# UVM_INFO ../apb_uvc/apb_driver.sv(52) @ 670310000: uvm_test_top.env.apb_uvcc.agent.driver [apb_driver] APB Transaction:
# ---------------------------------------------------------------------------------------------------------------------------------
# Name                           Type              Size  Value                                                                     
# ---------------------------------------------------------------------------------------------------------------------------------
