# vsim -c tb_top hw_top -wlf vsim.wlf -sv_seed random -solvefaildebug -assertdebug -sva -coverage -voptargs="+acc" -l ./log/vsim.log "+UVM_VERBOSITY=UVM_HIGH" "+UVM_TESTNAME=test_N_parity_error" -sv_lib uvm_dpi -do "coverage save -onexit -assert -code bcefs -directive -cvg coverage.ucdb; log -r /*; run -all; quit" 
# Start time: 19:49:59 on Jan 26,2026
# ** Note: (vsim-3812) Design is being optimized...
# ** Note: (vopt-143) Recognized 1 FSM in module "uart_tx(fast)".
# ** Note: (vopt-143) Recognized 1 FSM in module "uart_rx(fast)".
# //  Questa Sim-64
# //  Version 10.7c linux_x86_64 Aug 17 2018
# //
# //  Copyright 1991-2018 Mentor Graphics Corporation
# //  All Rights Reserved.
# //
# //  QuestaSim and its associated documentation contain trade
# //  secrets and commercial or financial information that are the property of
# //  Mentor Graphics Corporation and are privileged, confidential,
# //  and exempt from disclosure under the Freedom of Information Act,
# //  5 U.S.C. Section 552. Furthermore, this information
# //  is prohibited from disclosure under the Trade Secrets Act,
# //  18 U.S.C. Section 1905.
# //
# Loading sv_std.std
# Loading work.apb_if(fast)
# Loading work.uart_if(fast)
# Loading mtiUvm.uvm_pkg
# Loading work.uart_common_pkg(fast)
# Loading work.uart_pkg(fast)
# Loading work.apb_pkg(fast)
# Loading work.uart_tb_pkg(fast)
# Loading work.tb_top(fast)
# Loading work.hw_top(fast)
# Loading work.apb_if_sv_unit(fast)
# Loading work.apb_if(fast)
# Loading work.uart_if_sv_unit(fast)
# Loading work.uart_if(fast)
# Loading work.uart_DUT_4(fast)
# Loading work.apb_slave(fast)
# Loading work.register_block(fast)
# Loading work.uart_tx(fast)
# Loading work.bclk_gen(fast)
# Loading work.uart_rx(fast)
# Loading mtiUvm.questa_uvm_pkg(fast)
# Loading ./uvm_dpi.so
# Sv_Seed = 1036909917
# coverage save -onexit -assert -code bcefs -directive -cvg coverage.ucdb
#  log -r /*
#  run -all
# ----------------------------------------------------------------
# UVM-1.1d
# (C) 2007-2013 Mentor Graphics Corporation
# (C) 2007-2013 Cadence Design Systems, Inc.
# (C) 2006-2013 Synopsys, Inc.
# (C) 2011-2013 Cypress Semiconductor Corp.
# ----------------------------------------------------------------
# 
#   ***********       IMPORTANT RELEASE NOTES         ************
# 
#   You are using a version of the UVM library that has been compiled
#   with `UVM_NO_DEPRECATED undefined.
#   See http://www.eda.org/svdb/view.php?id=3313 for more details.
# 
#   You are using a version of the UVM library that has been compiled
#   with `UVM_OBJECT_MUST_HAVE_CONSTRUCTOR undefined.
#   See http://www.eda.org/svdb/view.php?id=3770 for more details.
# 
#       (Specify +UVM_NO_RELNOTES to turn off this notice)
# 
# UVM_INFO verilog_src/questa_uvm_pkg-1.2/src/questa_uvm_pkg.sv(215) @ 0: reporter [Questa UVM] QUESTA_UVM-1.2.3
# UVM_INFO verilog_src/questa_uvm_pkg-1.2/src/questa_uvm_pkg.sv(216) @ 0: reporter [Questa UVM]  questa_uvm::init(+struct)
# UVM_INFO @ 0: reporter [RNTST] Running test test_N_parity_error...
# UVM_INFO ../tb/apb_uart_testlib.sv(219) @ 0: uvm_test_top [TEST] 
####======================== TEST N trans PARITY DETECT OF DUT ========================#####
# UVM_INFO ../tb/apb_uart_env.sv(17) @ 0: uvm_test_top.env [APB_UART_ENVIRONMENT] The env is being build phase
# UVM_INFO ../tb/apb_uart_testlib.sv(32) @ 0: uvm_test_top [test_N_parity_error] Printing topology:
# UVM_INFO @ 0: reporter [UVMTOP] UVM testbench topology:
# ------------------------------------------------------------------------
# Name                           Type                     Size  Value     
# ------------------------------------------------------------------------
# uvm_test_top                   test_N_parity_error      -     @476      
#   env                          apb_uart_env             -     @494      
#     apb_uvcc                   apb_uvc                  -     @502      
#       agent                    apb_agent                -     @652      
#         driver                 apb_driver               -     @787      
#           rsp_port             uvm_analysis_port        -     @802      
#           seq_item_port        uvm_seq_item_pull_port   -     @794      
#           num_trans            integral                 32    'h0       
#         monitor                apb_monitor              -     @663      
#           item_collected_port  uvm_analysis_port        -     @670      
#           num_trans_col        integral                 32    'h0       
#         sequencer              apb_sequencer            -     @678      
#           rsp_export           uvm_analysis_export      -     @685      
#           seq_item_export      uvm_seq_item_pull_imp    -     @779      
#           arbitration_queue    array                    0     -         
#           lock_queue           array                    0     -         
#           num_last_reqs        integral                 32    'd1       
#           num_last_rsps        integral                 32    'd1       
#         is_active              uvm_active_passive_enum  1     UVM_ACTIVE
#     scoreboard                 apb_uart_scoreboard      -     @516      
#       apb_port                 uvm_analysis_imp_apb     -     @523      
#       uart_port                uvm_analysis_imp_uart    -     @531      
#     uart_uvcc                  uart_uvc                 -     @509      
#       agent                    uart_agent               -     @825      
#         driver                 uart_driver              -     @958      
#           rsp_port             uvm_analysis_port        -     @973      
#           seq_item_port        uvm_seq_item_pull_port   -     @965      
#         monitor                uart_monitor             -     @834      
#           item_collected_port  uvm_analysis_port        -     @841      
#         sequencer              uart_sequencer           -     @849      
#           rsp_export           uvm_analysis_export      -     @856      
#           seq_item_export      uvm_seq_item_pull_imp    -     @950      
#           arbitration_queue    array                    0     -         
#           lock_queue           array                    0     -         
#           num_last_reqs        integral                 32    'd1       
#           num_last_rsps        integral                 32    'd1       
#     vir_seqr                   uart_virsequencer        -     @539      
#       rsp_export               uvm_analysis_export      -     @546      
#       seq_item_export          uvm_seq_item_pull_imp    -     @640      
#       arbitration_queue        array                    0     -         
#       lock_queue               array                    0     -         
#       num_last_reqs            integral                 32    'd1       
#       num_last_rsps            integral                 32    'd1       
# ------------------------------------------------------------------------
# 
# UVM_INFO verilog_src/questa_uvm_pkg-1.2/src/questa_uvm_pkg.sv(277) @ 0: reporter [Questa UVM] End Of Elaboration
# UVM_INFO ../apb_uvc/apb_driver.sv(22) @ 0: uvm_test_top.env.apb_uvcc.agent.driver [apb_driver] Start of simulation for uvm_test_top.env.apb_uvcc.agent.driver
# UVM_INFO ../apb_uvc/apb_monitor.sv(28) @ 0: uvm_test_top.env.apb_uvcc.agent.monitor [apb_monitor] Start of simulation for uvm_test_top.env.apb_uvcc.agent.monitor
# UVM_INFO ../apb_uvc/apb_sequencer.sv(10) @ 0: uvm_test_top.env.apb_uvcc.agent.sequencer [apb_sequencer] start of simulation for uvm_test_top.env.apb_uvcc.agent.sequencer
# UVM_INFO ../apb_uvc/apb_agent.sv(33) @ 0: uvm_test_top.env.apb_uvcc.agent [apb_agent] Start of simulation for uvm_test_top.env.apb_uvcc.agent
# UVM_INFO ../apb_uvc/apb_uvc.sv(19) @ 0: uvm_test_top.env.apb_uvcc [apb_uvc] Start of simulation for uvm_test_top.env.apb_uvcc
# UVM_INFO ../uart_uvc/uart_sequencer.sv(10) @ 0: uvm_test_top.env.uart_uvcc.agent.sequencer [uart_sequencer] start of simulation for uvm_test_top.env.uart_uvcc.agent.sequencer
# UVM_INFO ../uart_uvc/uart_agent.sv(45) @ 0: uvm_test_top.env.uart_uvcc.agent [uart_agent] Start of simulation for uvm_test_top.env.uart_uvcc.agent
# UVM_INFO ../uart_uvc/uart_agent.sv(46) @ 0: uvm_test_top.env.uart_uvcc.agent [uart_agent] Agent started in UVM_ACTIVE mode.
# UVM_INFO ../tb/apb_uart_testlib.sv(37) @ 0: uvm_test_top [test_N_parity_error] start of simulation for uvm_test_top
# UVM_INFO ../tb/uart_virseqs.sv(21) @ 0: uvm_test_top.env.vir_seqr@@vseq_receive_N_RX_ErrorInject [vseq_receive_N_RX_ErrorInject] raise objection
# UVM_INFO ../tb/uart_virseqs.sv(507) @ 0: uvm_test_top.env.vir_seqr@@vseq_receive_N_RX_ErrorInject [VSEQ_N] === STARTING TEST: SEND 56 FRAMES ===
# UVM_INFO ../tb/uart_virseqs.sv(510) @ 0: uvm_test_top.env.vir_seqr@@vseq_receive_N_RX_ErrorInject [VSEQ_N] 
#####========================Executing FRAME 1/56...========================#####
# UVM_INFO ../tb/uart_virseqs.sv(408) @ 0: uvm_test_top.env.vir_seqr@@vseq_receive_N_RX_ErrorInject.par_err_rx_vseq [VSEQ_ERR] === STARTING BACKDOOR PARITY ERROR INJECTION TEST ===
# UVM_INFO ../tb/uart_virseqs.sv(66) @ 0: uvm_test_top.env.vir_seqr@@vseq_receive_N_RX_ErrorInject.par_err_rx_vseq.config_vseq [VSEQ] Configuring System using shared object from Test...
# UVM_INFO ../apb_uvc/apb_seqs.sv(62) @ 0: uvm_test_top.env.apb_uvcc.agent.sequencer@@apb_seq [APB_WR_SEQ] Writing Config to DUT: 0x00000018 
#  (DATA_5BIT, PARITY_EN, PARITY_EVEN, STOP_1BIT)
# UVM_INFO ../uart_uvc/uart_driver.sv(33) @ 100000: uvm_test_top.env.uart_uvcc.agent.driver [uart_driver] Reset released. UART Driver started.
# UVM_INFO ../uart_uvc/uart_monitor.sv(36) @ 100000: uvm_test_top.env.uart_uvcc.agent.monitor [uart_monitor] Monitor started.
# UVM_INFO ../apb_uvc/apb_driver.sv(35) @ 100000: uvm_test_top.env.apb_uvcc.agent.driver [apb_driver] Reset released, APB Driver active
# UVM_INFO ../apb_uvc/apb_monitor.sv(52) @ 150000: uvm_test_top.env.apb_uvcc.agent.monitor [MON] Updating UART Configuration
# UVM_INFO ../apb_uvc/apb_driver.sv(52) @ 150000: uvm_test_top.env.apb_uvcc.agent.driver [apb_driver] APB Transaction:
# --------------------------------------------------------------------------------------------------------
# Name                           Type              Size  Value                                            
# --------------------------------------------------------------------------------------------------------
# req                            apb_transaction   -     @1033                                            
#   paddr                        integral          12    'h8                                              
#   pwdata                       integral          32    'h18                                             
#   pwrite                       integral          1     'h1                                              
#   pstrb                        integral          4     'h1                                              
#   prdata                       integral          32    'h0xxxxxxxx                                      
#   pslverr                      integral          1     'h0X                                             
#   addr_type                    addr_test_type_e  32    ADDR_VALID                                       
#   write_true_flase             write_quality_e   32    WRITE_ADDR_TRUE                                  
#   begin_time                   time              64    110000                                           
#   depth                        int               32    'd2                                              
#   parent sequence (name)       string            7     apb_seq                                          
#   parent sequence (full name)  string            49    uvm_test_top.env.apb_uvcc.agent.sequencer.apb_seq
#   sequencer                    string            41    uvm_test_top.env.apb_uvcc.agent.sequencer        
# --------------------------------------------------------------------------------------------------------
# 
# UVM_INFO ../tb/uart_virseqs.sv(74) @ 150000: uvm_test_top.env.vir_seqr@@vseq_receive_N_RX_ErrorInject.par_err_rx_vseq.config_vseq [VSEQ] Activating UART Driver for RX path
# UVM_INFO ../uart_uvc/uart_seqs.sv(55) @ 150000: uvm_test_top.env.uart_uvcc.agent.sequencer@@uart_seq [UART_CONFIG_FRAME_SEQ] Driving UART Transaction based on Shared Config
# UVM_INFO ../uart_uvc/uart_driver.sv(58) @ 150000: uvm_test_top.env.uart_uvcc.agent.driver [uart_driver] 
#####===Driving Trans: DATA=0x1d,DATA_5BIT, STOP_1BIT, PARITY_EN, PARITY_EVEN===#####
# UVM_ERROR ../tb/apb_uart_scoreboard.sv(232) @ 160000: uvm_test_top.env.scoreboard [SB_CFG_HDL] CFG mismatch!
#   DUT: data_bit_num=0 stop_bit_num=0 parity_en=0 parity_type=0
#   CFG: data_bit_num=0 stop_bit_num=0 parity_en=1 parity_type=1
# UVM_INFO ../apb_uvc/apb_monitor.sv(52) @ 170000: uvm_test_top.env.apb_uvcc.agent.monitor [MON] Updating UART Configuration
# UVM_ERROR ../tb/apb_uart_scoreboard.sv(232) @ 180000: uvm_test_top.env.scoreboard [SB_CFG_HDL] CFG mismatch!
#   DUT: data_bit_num=0 stop_bit_num=0 parity_en=0 parity_type=0
#   CFG: data_bit_num=0 stop_bit_num=0 parity_en=1 parity_type=1
# UVM_INFO ../uart_uvc/uart_driver.sv(86) @ 52236000: uvm_test_top.env.uart_uvcc.agent.driver [uart_driver] Injecting Parity Error!
# UVM_INFO ../tb/apb_uart_scoreboard.sv(98) @ 69590000: uvm_test_top.env.scoreboard [SB_UART] UART RX queued: 0x1d
# UVM_INFO ../uart_uvc/uart_monitor.sv(131) @ 69590000: uvm_test_top.env.uart_uvcc.agent.monitor [MON_RX] DATA is monitored from RX: 0x1d
# UVM_INFO ../apb_uvc/apb_seqs.sv(134) @ 131362000: uvm_test_top.env.apb_uvcc.agent.sequencer@@vseq_receive_N_RX_ErrorInject.par_err_rx_vseq.apb_stt_seq [read_status_reg_seq] Reading UART Status Register (0x10)
# UVM_INFO ../apb_uvc/apb_driver.sv(52) @ 131410000: uvm_test_top.env.apb_uvcc.agent.driver [apb_driver] APB Transaction:
# ------------------------------------------------------------------------------------------------------------------------------------------
# Name                           Type              Size  Value                                                                              
# ------------------------------------------------------------------------------------------------------------------------------------------
# req                            apb_transaction   -     @1149                                                                              
#   paddr                        integral          12    'h10                                                                               
#   pwdata                       integral          32    'h364e0d61                                                                         
#   pwrite                       integral          1     'h0                                                                                
#   pstrb                        integral          4     'h0                                                                                
#   prdata                       integral          32    'h0                                                                                
#   pslverr                      integral          1     'h0X                                                                               
#   addr_type                    addr_test_type_e  32    ADDR_RO                                                                            
#   write_true_flase             write_quality_e   32    WRITE_ADDR_FALSE                                                                   
#   begin_time                   time              64    131370000                                                                          
#   depth                        int               32    'd4                                                                                
#   parent sequence (name)       string            11    apb_stt_seq                                                                        
#   parent sequence (full name)  string            83    uvm_test_top.env.vir_seqr.vseq_receive_N_RX_ErrorInject.par_err_rx_vseq.apb_stt_seq
#   sequencer                    string            41    uvm_test_top.env.apb_uvcc.agent.sequencer                                          
# ------------------------------------------------------------------------------------------------------------------------------------------
# 
# UVM_INFO ../tb/uart_virseqs.sv(466) @ 131410000: uvm_test_top.env.vir_seqr@@vseq_receive_N_RX_ErrorInject.par_err_rx_vseq [VSEQ_ERR] Reading RX Data Register (0x04) to trigger Scoreboard
# UVM_INFO ../apb_uvc/apb_driver.sv(52) @ 131470000: uvm_test_top.env.apb_uvcc.agent.driver [apb_driver] APB Transaction:
# -------------------------------------------------------------------------------------------------------------------------------------------
# Name                           Type              Size  Value                                                                               
# -------------------------------------------------------------------------------------------------------------------------------------------
# req                            apb_transaction   -     @1161                                                                               
#   paddr                        integral          12    'h4                                                                                 
#   pwdata                       integral          32    'hdb63a8ab                                                                          
#   pwrite                       integral          1     'h0                                                                                 
#   pstrb                        integral          4     'h1                                                                                 
#   prdata                       integral          32    'h0                                                                                 
#   pslverr                      integral          1     'h0X                                                                                
#   addr_type                    addr_test_type_e  32    ADDR_RO                                                                             
#   write_true_flase             write_quality_e   32    WRITE_ADDR_FALSE                                                                    
#   begin_time                   time              64    131430000                                                                           
#   depth                        int               32    'd4                                                                                 
#   parent sequence (name)       string            12    apb_data_seq                                                                        
#   parent sequence (full name)  string            84    uvm_test_top.env.vir_seqr.vseq_receive_N_RX_ErrorInject.par_err_rx_vseq.apb_data_seq
#   sequencer                    string            41    uvm_test_top.env.apb_uvcc.agent.sequencer                                           
# -------------------------------------------------------------------------------------------------------------------------------------------
# 
# UVM_INFO ../apb_uvc/apb_seqs.sv(121) @ 131470000: uvm_test_top.env.apb_uvcc.agent.sequencer@@vseq_receive_N_RX_ErrorInject.par_err_rx_vseq.apb_data_seq [APB_RX_SEQ] Read RX with DATA: 00000000
# UVM_ERROR ../tb/uart_virseqs.sv(480) @ 131470000: uvm_test_top.env.vir_seqr@@vseq_receive_N_RX_ErrorInject.par_err_rx_vseq [ASSERT] DUT: RX_DONE failed to set! STT_REG = 0x0
# UVM_ERROR ../tb/uart_virseqs.sv(487) @ 131470000: uvm_test_top.env.vir_seqr@@vseq_receive_N_RX_ErrorInject.par_err_rx_vseq [ASSERT] FAILED: DUT never asserted internal parity_error signal despite BAD_PARITY injection!
# UVM_INFO ../tb/uart_virseqs.sv(472) @ 131470000: uvm_test_top.env.vir_seqr@@vseq_receive_N_RX_ErrorInject.par_err_rx_vseq [VSEQ_ERR] === ERROR INJECTION TEST COMPLETED ===
# UVM_INFO ../tb/uart_virseqs.sv(510) @ 131470000: uvm_test_top.env.vir_seqr@@vseq_receive_N_RX_ErrorInject [VSEQ_N] 
#####========================Executing FRAME 2/56...========================#####
# UVM_INFO ../tb/uart_virseqs.sv(408) @ 131470000: uvm_test_top.env.vir_seqr@@vseq_receive_N_RX_ErrorInject.par_err_rx_vseq [VSEQ_ERR] === STARTING BACKDOOR PARITY ERROR INJECTION TEST ===
# UVM_INFO ../tb/uart_virseqs.sv(66) @ 131470000: uvm_test_top.env.vir_seqr@@vseq_receive_N_RX_ErrorInject.par_err_rx_vseq.config_vseq [VSEQ] Configuring System using shared object from Test...
# UVM_INFO ../apb_uvc/apb_seqs.sv(62) @ 131470000: uvm_test_top.env.apb_uvcc.agent.sequencer@@apb_seq [APB_WR_SEQ] Writing Config to DUT: 0x00000018 
#  (DATA_5BIT, PARITY_EN, PARITY_EVEN, STOP_1BIT)
# UVM_INFO ../tb/apb_uart_scoreboard.sv(73) @ 131470000: uvm_test_top.env.scoreboard [SB_APB] APB<-RXDATA queued: 0x00
# UVM_ERROR ../tb/apb_uart_scoreboard.sv(190) @ 131470000: uvm_test_top.env.scoreboard [SB_RX] Mismatch APB<-RXDATA vs UART_RX! bits=5 EXP=0x01 ACT=0x00 (raw UART=0x1d raw APB=0x00)
# UVM_INFO ../apb_uvc/apb_driver.sv(52) @ 131530000: uvm_test_top.env.apb_uvcc.agent.driver [apb_driver] APB Transaction:
# --------------------------------------------------------------------------------------------------------
# Name                           Type              Size  Value                                            
# --------------------------------------------------------------------------------------------------------
# req                            apb_transaction   -     @1187                                            
#   paddr                        integral          12    'h8                                              
#   pwdata                       integral          32    'h18                                             
#   pwrite                       integral          1     'h1                                              
#   pstrb                        integral          4     'h1                                              
#   prdata                       integral          32    'h0xxxxxxxx                                      
#   pslverr                      integral          1     'h0X                                             
#   addr_type                    addr_test_type_e  32    ADDR_VALID                                       
#   write_true_flase             write_quality_e   32    WRITE_ADDR_TRUE                                  
#   begin_time                   time              64    131490000                                        
#   depth                        int               32    'd2                                              
#   parent sequence (name)       string            7     apb_seq                                          
#   parent sequence (full name)  string            49    uvm_test_top.env.apb_uvcc.agent.sequencer.apb_seq
#   sequencer                    string            41    uvm_test_top.env.apb_uvcc.agent.sequencer        
# --------------------------------------------------------------------------------------------------------
# 
# UVM_INFO ../tb/uart_virseqs.sv(74) @ 131530000: uvm_test_top.env.vir_seqr@@vseq_receive_N_RX_ErrorInject.par_err_rx_vseq.config_vseq [VSEQ] Activating UART Driver for RX path
# UVM_INFO ../uart_uvc/uart_seqs.sv(55) @ 131530000: uvm_test_top.env.uart_uvcc.agent.sequencer@@uart_seq [UART_CONFIG_FRAME_SEQ] Driving UART Transaction based on Shared Config
# UVM_INFO ../apb_uvc/apb_monitor.sv(52) @ 131530000: uvm_test_top.env.apb_uvcc.agent.monitor [MON] Updating UART Configuration
# UVM_INFO ../uart_uvc/uart_driver.sv(58) @ 131530000: uvm_test_top.env.uart_uvcc.agent.driver [uart_driver] 
#####===Driving Trans: DATA=0x19,DATA_5BIT, STOP_1BIT, PARITY_EN, PARITY_EVEN===#####
# UVM_ERROR ../tb/apb_uart_scoreboard.sv(232) @ 131540000: uvm_test_top.env.scoreboard [SB_CFG_HDL] CFG mismatch!
#   DUT: data_bit_num=0 stop_bit_num=0 parity_en=0 parity_type=0
#   CFG: data_bit_num=0 stop_bit_num=0 parity_en=1 parity_type=1
# UVM_INFO ../uart_uvc/uart_driver.sv(86) @ 183616000: uvm_test_top.env.uart_uvcc.agent.driver [uart_driver] Injecting Parity Error!
# UVM_INFO ../tb/apb_uart_scoreboard.sv(98) @ 200970000: uvm_test_top.env.scoreboard [SB_UART] UART RX queued: 0x19
# UVM_INFO ../uart_uvc/uart_monitor.sv(131) @ 200970000: uvm_test_top.env.uart_uvcc.agent.monitor [MON_RX] DATA is monitored from RX: 0x19
# UVM_INFO ../apb_uvc/apb_seqs.sv(134) @ 262742000: uvm_test_top.env.apb_uvcc.agent.sequencer@@vseq_receive_N_RX_ErrorInject.par_err_rx_vseq.apb_stt_seq [read_status_reg_seq] Reading UART Status Register (0x10)
# UVM_INFO ../apb_uvc/apb_driver.sv(52) @ 262790000: uvm_test_top.env.apb_uvcc.agent.driver [apb_driver] APB Transaction:
# ------------------------------------------------------------------------------------------------------------------------------------------
# Name                           Type              Size  Value                                                                              
# ------------------------------------------------------------------------------------------------------------------------------------------
# req                            apb_transaction   -     @1219                                                                              
#   paddr                        integral          12    'h10                                                                               
#   pwdata                       integral          32    'h6ea88df6                                                                         
#   pwrite                       integral          1     'h0                                                                                
#   pstrb                        integral          4     'h0                                                                                
#   prdata                       integral          32    'h0                                                                                
#   pslverr                      integral          1     'h0X                                                                               
#   addr_type                    addr_test_type_e  32    ADDR_RO                                                                            
#   write_true_flase             write_quality_e   32    WRITE_ADDR_FALSE                                                                   
#   begin_time                   time              64    262750000                                                                          
#   depth                        int               32    'd4                                                                                
#   parent sequence (name)       string            11    apb_stt_seq                                                                        
#   parent sequence (full name)  string            83    uvm_test_top.env.vir_seqr.vseq_receive_N_RX_ErrorInject.par_err_rx_vseq.apb_stt_seq
#   sequencer                    string            41    uvm_test_top.env.apb_uvcc.agent.sequencer                                          
# ------------------------------------------------------------------------------------------------------------------------------------------
# 
# UVM_INFO ../tb/uart_virseqs.sv(466) @ 262790000: uvm_test_top.env.vir_seqr@@vseq_receive_N_RX_ErrorInject.par_err_rx_vseq [VSEQ_ERR] Reading RX Data Register (0x04) to trigger Scoreboard
# UVM_INFO ../apb_uvc/apb_driver.sv(52) @ 262850000: uvm_test_top.env.apb_uvcc.agent.driver [apb_driver] APB Transaction:
# -------------------------------------------------------------------------------------------------------------------------------------------
# Name                           Type              Size  Value                                                                               
# -------------------------------------------------------------------------------------------------------------------------------------------
# req                            apb_transaction   -     @1231                                                                               
#   paddr                        integral          12    'h4                                                                                 
#   pwdata                       integral          32    'he4d86aaf                                                                          
#   pwrite                       integral          1     'h0                                                                                 
#   pstrb                        integral          4     'h1                                                                                 
#   prdata                       integral          32    'h0                                                                                 
#   pslverr                      integral          1     'h0X                                                                                
#   addr_type                    addr_test_type_e  32    ADDR_RO                                                                             
#   write_true_flase             write_quality_e   32    WRITE_ADDR_FALSE                                                                    
#   begin_time                   time              64    262810000                                                                           
#   depth                        int               32    'd4                                                                                 
#   parent sequence (name)       string            12    apb_data_seq                                                                        
#   parent sequence (full name)  string            84    uvm_test_top.env.vir_seqr.vseq_receive_N_RX_ErrorInject.par_err_rx_vseq.apb_data_seq
#   sequencer                    string            41    uvm_test_top.env.apb_uvcc.agent.sequencer                                           
# -------------------------------------------------------------------------------------------------------------------------------------------
# 
# UVM_INFO ../apb_uvc/apb_seqs.sv(121) @ 262850000: uvm_test_top.env.apb_uvcc.agent.sequencer@@vseq_receive_N_RX_ErrorInject.par_err_rx_vseq.apb_data_seq [APB_RX_SEQ] Read RX with DATA: 00000000
# UVM_ERROR ../tb/uart_virseqs.sv(480) @ 262850000: uvm_test_top.env.vir_seqr@@vseq_receive_N_RX_ErrorInject.par_err_rx_vseq [ASSERT] DUT: RX_DONE failed to set! STT_REG = 0x0
# UVM_ERROR ../tb/uart_virseqs.sv(487) @ 262850000: uvm_test_top.env.vir_seqr@@vseq_receive_N_RX_ErrorInject.par_err_rx_vseq [ASSERT] FAILED: DUT never asserted internal parity_error signal despite BAD_PARITY injection!
# UVM_INFO ../tb/uart_virseqs.sv(472) @ 262850000: uvm_test_top.env.vir_seqr@@vseq_receive_N_RX_ErrorInject.par_err_rx_vseq [VSEQ_ERR] === ERROR INJECTION TEST COMPLETED ===
# UVM_INFO ../tb/uart_virseqs.sv(510) @ 262850000: uvm_test_top.env.vir_seqr@@vseq_receive_N_RX_ErrorInject [VSEQ_N] 
#####========================Executing FRAME 3/56...========================#####
# UVM_INFO ../tb/uart_virseqs.sv(408) @ 262850000: uvm_test_top.env.vir_seqr@@vseq_receive_N_RX_ErrorInject.par_err_rx_vseq [VSEQ_ERR] === STARTING BACKDOOR PARITY ERROR INJECTION TEST ===
# UVM_INFO ../tb/uart_virseqs.sv(66) @ 262850000: uvm_test_top.env.vir_seqr@@vseq_receive_N_RX_ErrorInject.par_err_rx_vseq.config_vseq [VSEQ] Configuring System using shared object from Test...
# UVM_INFO ../apb_uvc/apb_seqs.sv(62) @ 262850000: uvm_test_top.env.apb_uvcc.agent.sequencer@@apb_seq [APB_WR_SEQ] Writing Config to DUT: 0x00000018 
#  (DATA_5BIT, PARITY_EN, PARITY_EVEN, STOP_1BIT)
# UVM_INFO ../tb/apb_uart_scoreboard.sv(73) @ 262850000: uvm_test_top.env.scoreboard [SB_APB] APB<-RXDATA queued: 0x00
# UVM_ERROR ../tb/apb_uart_scoreboard.sv(190) @ 262850000: uvm_test_top.env.scoreboard [SB_RX] Mismatch APB<-RXDATA vs UART_RX! bits=5 EXP=0x01 ACT=0x00 (raw UART=0x19 raw APB=0x00)
# UVM_INFO ../apb_uvc/apb_driver.sv(52) @ 262910000: uvm_test_top.env.apb_uvcc.agent.driver [apb_driver] APB Transaction:
# --------------------------------------------------------------------------------------------------------
# Name                           Type              Size  Value                                            
# --------------------------------------------------------------------------------------------------------
# req                            apb_transaction   -     @1257                                            
#   paddr                        integral          12    'h8                                              
#   pwdata                       integral          32    'h18                                             
#   pwrite                       integral          1     'h1                                              
#   pstrb                        integral          4     'h1                                              
#   prdata                       integral          32    'h0xxxxxxxx                                      
#   pslverr                      integral          1     'h0X                                             
#   addr_type                    addr_test_type_e  32    ADDR_VALID                                       
#   write_true_flase             write_quality_e   32    WRITE_ADDR_FALSE                                 
#   begin_time                   time              64    262870000                                        
#   depth                        int               32    'd2                                              
#   parent sequence (name)       string            7     apb_seq                                          
#   parent sequence (full name)  string            49    uvm_test_top.env.apb_uvcc.agent.sequencer.apb_seq
#   sequencer                    string            41    uvm_test_top.env.apb_uvcc.agent.sequencer        
# --------------------------------------------------------------------------------------------------------
# 
# UVM_INFO ../tb/uart_virseqs.sv(74) @ 262910000: uvm_test_top.env.vir_seqr@@vseq_receive_N_RX_ErrorInject.par_err_rx_vseq.config_vseq [VSEQ] Activating UART Driver for RX path
# UVM_INFO ../uart_uvc/uart_seqs.sv(55) @ 262910000: uvm_test_top.env.uart_uvcc.agent.sequencer@@uart_seq [UART_CONFIG_FRAME_SEQ] Driving UART Transaction based on Shared Config
# UVM_INFO ../apb_uvc/apb_monitor.sv(52) @ 262910000: uvm_test_top.env.apb_uvcc.agent.monitor [MON] Updating UART Configuration
# UVM_INFO ../uart_uvc/uart_driver.sv(58) @ 262910000: uvm_test_top.env.uart_uvcc.agent.driver [uart_driver] 
#####===Driving Trans: DATA=0x05,DATA_5BIT, STOP_1BIT, PARITY_EN, PARITY_EVEN===#####
# UVM_ERROR ../tb/apb_uart_scoreboard.sv(232) @ 262920000: uvm_test_top.env.scoreboard [SB_CFG_HDL] CFG mismatch!
#   DUT: data_bit_num=0 stop_bit_num=0 parity_en=0 parity_type=0
#   CFG: data_bit_num=0 stop_bit_num=0 parity_en=1 parity_type=1
# UVM_INFO ../uart_uvc/uart_driver.sv(86) @ 314996000: uvm_test_top.env.uart_uvcc.agent.driver [uart_driver] Injecting Parity Error!
# UVM_INFO ../tb/apb_uart_scoreboard.sv(98) @ 332350000: uvm_test_top.env.scoreboard [SB_UART] UART RX queued: 0x05
# UVM_INFO ../uart_uvc/uart_monitor.sv(131) @ 332350000: uvm_test_top.env.uart_uvcc.agent.monitor [MON_RX] DATA is monitored from RX: 0x05
# UVM_INFO ../apb_uvc/apb_seqs.sv(134) @ 394122000: uvm_test_top.env.apb_uvcc.agent.sequencer@@vseq_receive_N_RX_ErrorInject.par_err_rx_vseq.apb_stt_seq [read_status_reg_seq] Reading UART Status Register (0x10)
# UVM_INFO ../apb_uvc/apb_driver.sv(52) @ 394170000: uvm_test_top.env.apb_uvcc.agent.driver [apb_driver] APB Transaction:
# ------------------------------------------------------------------------------------------------------------------------------------------
# Name                           Type              Size  Value                                                                              
# ------------------------------------------------------------------------------------------------------------------------------------------
# req                            apb_transaction   -     @1289                                                                              
#   paddr                        integral          12    'h10                                                                               
#   pwdata                       integral          32    'h686cc2c0                                                                         
#   pwrite                       integral          1     'h0                                                                                
#   pstrb                        integral          4     'h0                                                                                
#   prdata                       integral          32    'h0                                                                                
#   pslverr                      integral          1     'h0X                                                                               
#   addr_type                    addr_test_type_e  32    ADDR_RO                                                                            
#   write_true_flase             write_quality_e   32    WRITE_ADDR_FALSE                                                                   
#   begin_time                   time              64    394130000                                                                          
#   depth                        int               32    'd4                                                                                
#   parent sequence (name)       string            11    apb_stt_seq                                                                        
#   parent sequence (full name)  string            83    uvm_test_top.env.vir_seqr.vseq_receive_N_RX_ErrorInject.par_err_rx_vseq.apb_stt_seq
#   sequencer                    string            41    uvm_test_top.env.apb_uvcc.agent.sequencer                                          
# ------------------------------------------------------------------------------------------------------------------------------------------
# 
# UVM_INFO ../tb/uart_virseqs.sv(466) @ 394170000: uvm_test_top.env.vir_seqr@@vseq_receive_N_RX_ErrorInject.par_err_rx_vseq [VSEQ_ERR] Reading RX Data Register (0x04) to trigger Scoreboard
# UVM_INFO ../apb_uvc/apb_driver.sv(52) @ 394230000: uvm_test_top.env.apb_uvcc.agent.driver [apb_driver] APB Transaction:
# -------------------------------------------------------------------------------------------------------------------------------------------
# Name                           Type              Size  Value                                                                               
# -------------------------------------------------------------------------------------------------------------------------------------------
# req                            apb_transaction   -     @1301                                                                               
#   paddr                        integral          12    'h4                                                                                 
#   pwdata                       integral          32    'h12e3f02f                                                                          
#   pwrite                       integral          1     'h0                                                                                 
#   pstrb                        integral          4     'h0                                                                                 
#   prdata                       integral          32    'h0                                                                                 
#   pslverr                      integral          1     'h0X                                                                                
#   addr_type                    addr_test_type_e  32    ADDR_RO                                                                             
#   write_true_flase             write_quality_e   32    WRITE_ADDR_FALSE                                                                    
#   begin_time                   time              64    394190000                                                                           
#   depth                        int               32    'd4                                                                                 
#   parent sequence (name)       string            12    apb_data_seq                                                                        
#   parent sequence (full name)  string            84    uvm_test_top.env.vir_seqr.vseq_receive_N_RX_ErrorInject.par_err_rx_vseq.apb_data_seq
#   sequencer                    string            41    uvm_test_top.env.apb_uvcc.agent.sequencer                                           
# -------------------------------------------------------------------------------------------------------------------------------------------
# 
# UVM_INFO ../apb_uvc/apb_seqs.sv(121) @ 394230000: uvm_test_top.env.apb_uvcc.agent.sequencer@@vseq_receive_N_RX_ErrorInject.par_err_rx_vseq.apb_data_seq [APB_RX_SEQ] Read RX with DATA: 00000000
# UVM_ERROR ../tb/uart_virseqs.sv(480) @ 394230000: uvm_test_top.env.vir_seqr@@vseq_receive_N_RX_ErrorInject.par_err_rx_vseq [ASSERT] DUT: RX_DONE failed to set! STT_REG = 0x0
# UVM_ERROR ../tb/uart_virseqs.sv(487) @ 394230000: uvm_test_top.env.vir_seqr@@vseq_receive_N_RX_ErrorInject.par_err_rx_vseq [ASSERT] FAILED: DUT never asserted internal parity_error signal despite BAD_PARITY injection!
# UVM_INFO ../tb/uart_virseqs.sv(472) @ 394230000: uvm_test_top.env.vir_seqr@@vseq_receive_N_RX_ErrorInject.par_err_rx_vseq [VSEQ_ERR] === ERROR INJECTION TEST COMPLETED ===
# UVM_INFO ../tb/uart_virseqs.sv(510) @ 394230000: uvm_test_top.env.vir_seqr@@vseq_receive_N_RX_ErrorInject [VSEQ_N] 
#####========================Executing FRAME 4/56...========================#####
# UVM_INFO ../tb/uart_virseqs.sv(408) @ 394230000: uvm_test_top.env.vir_seqr@@vseq_receive_N_RX_ErrorInject.par_err_rx_vseq [VSEQ_ERR] === STARTING BACKDOOR PARITY ERROR INJECTION TEST ===
# UVM_INFO ../tb/uart_virseqs.sv(66) @ 394230000: uvm_test_top.env.vir_seqr@@vseq_receive_N_RX_ErrorInject.par_err_rx_vseq.config_vseq [VSEQ] Configuring System using shared object from Test...
# UVM_INFO ../apb_uvc/apb_seqs.sv(62) @ 394230000: uvm_test_top.env.apb_uvcc.agent.sequencer@@apb_seq [APB_WR_SEQ] Writing Config to DUT: 0x00000018 
#  (DATA_5BIT, PARITY_EN, PARITY_EVEN, STOP_1BIT)
# UVM_INFO ../tb/apb_uart_scoreboard.sv(73) @ 394230000: uvm_test_top.env.scoreboard [SB_APB] APB<-RXDATA queued: 0x00
# UVM_ERROR ../tb/apb_uart_scoreboard.sv(190) @ 394230000: uvm_test_top.env.scoreboard [SB_RX] Mismatch APB<-RXDATA vs UART_RX! bits=5 EXP=0x01 ACT=0x00 (raw UART=0x05 raw APB=0x00)
# UVM_INFO ../apb_uvc/apb_driver.sv(52) @ 394290000: uvm_test_top.env.apb_uvcc.agent.driver [apb_driver] APB Transaction:
# --------------------------------------------------------------------------------------------------------
# Name                           Type              Size  Value                                            
# --------------------------------------------------------------------------------------------------------
# req                            apb_transaction   -     @1327                                            
#   paddr                        integral          12    'h8                                              
#   pwdata                       integral          32    'h18                                             
#   pwrite                       integral          1     'h1                                              
#   pstrb                        integral          4     'h1                                              
#   prdata                       integral          32    'h0xxxxxxxx                                      
#   pslverr                      integral          1     'h0X                                             
#   addr_type                    addr_test_type_e  32    ADDR_VALID                                       
#   write_true_flase             write_quality_e   32    WRITE_ADDR_TRUE                                  
#   begin_time                   time              64    394250000                                        
#   depth                        int               32    'd2                                              
#   parent sequence (name)       string            7     apb_seq                                          
#   parent sequence (full name)  string            49    uvm_test_top.env.apb_uvcc.agent.sequencer.apb_seq
#   sequencer                    string            41    uvm_test_top.env.apb_uvcc.agent.sequencer        
# --------------------------------------------------------------------------------------------------------
# 
# UVM_INFO ../tb/uart_virseqs.sv(74) @ 394290000: uvm_test_top.env.vir_seqr@@vseq_receive_N_RX_ErrorInject.par_err_rx_vseq.config_vseq [VSEQ] Activating UART Driver for RX path
# UVM_INFO ../uart_uvc/uart_seqs.sv(55) @ 394290000: uvm_test_top.env.uart_uvcc.agent.sequencer@@uart_seq [UART_CONFIG_FRAME_SEQ] Driving UART Transaction based on Shared Config
# UVM_INFO ../apb_uvc/apb_monitor.sv(52) @ 394290000: uvm_test_top.env.apb_uvcc.agent.monitor [MON] Updating UART Configuration
# UVM_INFO ../uart_uvc/uart_driver.sv(58) @ 394290000: uvm_test_top.env.uart_uvcc.agent.driver [uart_driver] 
#####===Driving Trans: DATA=0x05,DATA_5BIT, STOP_1BIT, PARITY_EN, PARITY_EVEN===#####
# UVM_ERROR ../tb/apb_uart_scoreboard.sv(232) @ 394300000: uvm_test_top.env.scoreboard [SB_CFG_HDL] CFG mismatch!
#   DUT: data_bit_num=0 stop_bit_num=0 parity_en=0 parity_type=0
#   CFG: data_bit_num=0 stop_bit_num=0 parity_en=1 parity_type=1
# UVM_INFO ../uart_uvc/uart_driver.sv(86) @ 446376000: uvm_test_top.env.uart_uvcc.agent.driver [uart_driver] Injecting Parity Error!
# UVM_INFO ../tb/apb_uart_scoreboard.sv(98) @ 463730000: uvm_test_top.env.scoreboard [SB_UART] UART RX queued: 0x05
# UVM_INFO ../uart_uvc/uart_monitor.sv(131) @ 463730000: uvm_test_top.env.uart_uvcc.agent.monitor [MON_RX] DATA is monitored from RX: 0x05
# UVM_INFO ../apb_uvc/apb_seqs.sv(134) @ 525502000: uvm_test_top.env.apb_uvcc.agent.sequencer@@vseq_receive_N_RX_ErrorInject.par_err_rx_vseq.apb_stt_seq [read_status_reg_seq] Reading UART Status Register (0x10)
# UVM_INFO ../apb_uvc/apb_driver.sv(52) @ 525550000: uvm_test_top.env.apb_uvcc.agent.driver [apb_driver] APB Transaction:
# ------------------------------------------------------------------------------------------------------------------------------------------
# Name                           Type              Size  Value                                                                              
# ------------------------------------------------------------------------------------------------------------------------------------------
# req                            apb_transaction   -     @1359                                                                              
#   paddr                        integral          12    'h10                                                                               
#   pwdata                       integral          32    'h6ed6329e                                                                         
#   pwrite                       integral          1     'h0                                                                                
#   pstrb                        integral          4     'h1                                                                                
#   prdata                       integral          32    'h0                                                                                
#   pslverr                      integral          1     'h0X                                                                               
#   addr_type                    addr_test_type_e  32    ADDR_RO                                                                            
#   write_true_flase             write_quality_e   32    WRITE_ADDR_TRUE                                                                    
#   begin_time                   time              64    525510000                                                                          
#   depth                        int               32    'd4                                                                                
#   parent sequence (name)       string            11    apb_stt_seq                                                                        
#   parent sequence (full name)  string            83    uvm_test_top.env.vir_seqr.vseq_receive_N_RX_ErrorInject.par_err_rx_vseq.apb_stt_seq
#   sequencer                    string            41    uvm_test_top.env.apb_uvcc.agent.sequencer                                          
# ------------------------------------------------------------------------------------------------------------------------------------------
# 
# UVM_INFO ../tb/uart_virseqs.sv(466) @ 525550000: uvm_test_top.env.vir_seqr@@vseq_receive_N_RX_ErrorInject.par_err_rx_vseq [VSEQ_ERR] Reading RX Data Register (0x04) to trigger Scoreboard
# UVM_INFO ../apb_uvc/apb_driver.sv(52) @ 525610000: uvm_test_top.env.apb_uvcc.agent.driver [apb_driver] APB Transaction:
# -------------------------------------------------------------------------------------------------------------------------------------------
# Name                           Type              Size  Value                                                                               
# -------------------------------------------------------------------------------------------------------------------------------------------
# req                            apb_transaction   -     @1371                                                                               
#   paddr                        integral          12    'h4                                                                                 
#   pwdata                       integral          32    'h6ff32a32                                                                          
#   pwrite                       integral          1     'h0                                                                                 
#   pstrb                        integral          4     'h0                                                                                 
#   prdata                       integral          32    'h0                                                                                 
#   pslverr                      integral          1     'h0X                                                                                
#   addr_type                    addr_test_type_e  32    ADDR_RO                                                                             
#   write_true_flase             write_quality_e   32    WRITE_ADDR_TRUE                                                                     
#   begin_time                   time              64    525570000                                                                           
#   depth                        int               32    'd4                                                                                 
#   parent sequence (name)       string            12    apb_data_seq                                                                        
#   parent sequence (full name)  string            84    uvm_test_top.env.vir_seqr.vseq_receive_N_RX_ErrorInject.par_err_rx_vseq.apb_data_seq
#   sequencer                    string            41    uvm_test_top.env.apb_uvcc.agent.sequencer                                           
# -------------------------------------------------------------------------------------------------------------------------------------------
# 
# UVM_INFO ../apb_uvc/apb_seqs.sv(121) @ 525610000: uvm_test_top.env.apb_uvcc.agent.sequencer@@vseq_receive_N_RX_ErrorInject.par_err_rx_vseq.apb_data_seq [APB_RX_SEQ] Read RX with DATA: 00000000
# UVM_ERROR ../tb/uart_virseqs.sv(480) @ 525610000: uvm_test_top.env.vir_seqr@@vseq_receive_N_RX_ErrorInject.par_err_rx_vseq [ASSERT] DUT: RX_DONE failed to set! STT_REG = 0x0
# UVM_ERROR ../tb/uart_virseqs.sv(487) @ 525610000: uvm_test_top.env.vir_seqr@@vseq_receive_N_RX_ErrorInject.par_err_rx_vseq [ASSERT] FAILED: DUT never asserted internal parity_error signal despite BAD_PARITY injection!
# UVM_INFO ../tb/uart_virseqs.sv(472) @ 525610000: uvm_test_top.env.vir_seqr@@vseq_receive_N_RX_ErrorInject.par_err_rx_vseq [VSEQ_ERR] === ERROR INJECTION TEST COMPLETED ===
# UVM_INFO ../tb/uart_virseqs.sv(510) @ 525610000: uvm_test_top.env.vir_seqr@@vseq_receive_N_RX_ErrorInject [VSEQ_N] 
#####========================Executing FRAME 5/56...========================#####
# UVM_INFO ../tb/uart_virseqs.sv(408) @ 525610000: uvm_test_top.env.vir_seqr@@vseq_receive_N_RX_ErrorInject.par_err_rx_vseq [VSEQ_ERR] === STARTING BACKDOOR PARITY ERROR INJECTION TEST ===
# UVM_INFO ../tb/uart_virseqs.sv(66) @ 525610000: uvm_test_top.env.vir_seqr@@vseq_receive_N_RX_ErrorInject.par_err_rx_vseq.config_vseq [VSEQ] Configuring System using shared object from Test...
# UVM_INFO ../apb_uvc/apb_seqs.sv(62) @ 525610000: uvm_test_top.env.apb_uvcc.agent.sequencer@@apb_seq [APB_WR_SEQ] Writing Config to DUT: 0x00000018 
#  (DATA_5BIT, PARITY_EN, PARITY_EVEN, STOP_1BIT)
# UVM_INFO ../tb/apb_uart_scoreboard.sv(73) @ 525610000: uvm_test_top.env.scoreboard [SB_APB] APB<-RXDATA queued: 0x00
# UVM_ERROR ../tb/apb_uart_scoreboard.sv(190) @ 525610000: uvm_test_top.env.scoreboard [SB_RX] Mismatch APB<-RXDATA vs UART_RX! bits=5 EXP=0x01 ACT=0x00 (raw UART=0x05 raw APB=0x00)
# UVM_INFO ../apb_uvc/apb_driver.sv(52) @ 525670000: uvm_test_top.env.apb_uvcc.agent.driver [apb_driver] APB Transaction:
# --------------------------------------------------------------------------------------------------------
# Name                           Type              Size  Value                                            
# --------------------------------------------------------------------------------------------------------
# req                            apb_transaction   -     @1397                                            
#   paddr                        integral          12    'h8                                              
#   pwdata                       integral          32    'h18                                             
#   pwrite                       integral          1     'h1                                              
#   pstrb                        integral          4     'h1                                              
#   prdata                       integral          32    'h0xxxxxxxx                                      
#   pslverr                      integral          1     'h0X                                             
#   addr_type                    addr_test_type_e  32    ADDR_VALID                                       
#   write_true_flase             write_quality_e   32    WRITE_ADDR_TRUE                                  
#   begin_time                   time              64    525630000                                        
#   depth                        int               32    'd2                                              
#   parent sequence (name)       string            7     apb_seq                                          
#   parent sequence (full name)  string            49    uvm_test_top.env.apb_uvcc.agent.sequencer.apb_seq
#   sequencer                    string            41    uvm_test_top.env.apb_uvcc.agent.sequencer        
# --------------------------------------------------------------------------------------------------------
# 
# UVM_INFO ../tb/uart_virseqs.sv(74) @ 525670000: uvm_test_top.env.vir_seqr@@vseq_receive_N_RX_ErrorInject.par_err_rx_vseq.config_vseq [VSEQ] Activating UART Driver for RX path
# UVM_INFO ../uart_uvc/uart_seqs.sv(55) @ 525670000: uvm_test_top.env.uart_uvcc.agent.sequencer@@uart_seq [UART_CONFIG_FRAME_SEQ] Driving UART Transaction based on Shared Config
# UVM_INFO ../apb_uvc/apb_monitor.sv(52) @ 525670000: uvm_test_top.env.apb_uvcc.agent.monitor [MON] Updating UART Configuration
# UVM_INFO ../uart_uvc/uart_driver.sv(58) @ 525670000: uvm_test_top.env.uart_uvcc.agent.driver [uart_driver] 
#####===Driving Trans: DATA=0x0b,DATA_5BIT, STOP_1BIT, PARITY_EN, PARITY_EVEN===#####
# UVM_ERROR ../tb/apb_uart_scoreboard.sv(232) @ 525680000: uvm_test_top.env.scoreboard [SB_CFG_HDL] CFG mismatch!
#   DUT: data_bit_num=0 stop_bit_num=0 parity_en=0 parity_type=0
#   CFG: data_bit_num=0 stop_bit_num=0 parity_en=1 parity_type=1
# UVM_INFO ../uart_uvc/uart_driver.sv(86) @ 577756000: uvm_test_top.env.uart_uvcc.agent.driver [uart_driver] Injecting Parity Error!
# UVM_INFO ../tb/apb_uart_scoreboard.sv(98) @ 595110000: uvm_test_top.env.scoreboard [SB_UART] UART RX queued: 0x0b
# UVM_INFO ../uart_uvc/uart_monitor.sv(131) @ 595110000: uvm_test_top.env.uart_uvcc.agent.monitor [MON_RX] DATA is monitored from RX: 0x0b
# UVM_INFO ../apb_uvc/apb_seqs.sv(134) @ 656882000: uvm_test_top.env.apb_uvcc.agent.sequencer@@vseq_receive_N_RX_ErrorInject.par_err_rx_vseq.apb_stt_seq [read_status_reg_seq] Reading UART Status Register (0x10)
# UVM_INFO ../apb_uvc/apb_driver.sv(52) @ 656930000: uvm_test_top.env.apb_uvcc.agent.driver [apb_driver] APB Transaction:
# ------------------------------------------------------------------------------------------------------------------------------------------
# Name                           Type              Size  Value                                                                              
# ------------------------------------------------------------------------------------------------------------------------------------------
# req                            apb_transaction   -     @1429                                                                              
#   paddr                        integral          12    'h10                                                                               
#   pwdata                       integral          32    'h3f819897                                                                         
#   pwrite                       integral          1     'h0                                                                                
#   pstrb                        integral          4     'h0                                                                                
#   prdata                       integral          32    'h0                                                                                
#   pslverr                      integral          1     'h0X                                                                               
#   addr_type                    addr_test_type_e  32    ADDR_RO                                                                            
#   write_true_flase             write_quality_e   32    WRITE_ADDR_FALSE                                                                   
#   begin_time                   time              64    656890000                                                                          
#   depth                        int               32    'd4                                                                                
#   parent sequence (name)       string            11    apb_stt_seq                                                                        
#   parent sequence (full name)  string            83    uvm_test_top.env.vir_seqr.vseq_receive_N_RX_ErrorInject.par_err_rx_vseq.apb_stt_seq
#   sequencer                    string            41    uvm_test_top.env.apb_uvcc.agent.sequencer                                          
# ------------------------------------------------------------------------------------------------------------------------------------------
# 
# UVM_INFO ../tb/uart_virseqs.sv(466) @ 656930000: uvm_test_top.env.vir_seqr@@vseq_receive_N_RX_ErrorInject.par_err_rx_vseq [VSEQ_ERR] Reading RX Data Register (0x04) to trigger Scoreboard
# UVM_INFO ../apb_uvc/apb_driver.sv(52) @ 656990000: uvm_test_top.env.apb_uvcc.agent.driver [apb_driver] APB Transaction:
# -------------------------------------------------------------------------------------------------------------------------------------------
# Name                           Type              Size  Value                                                                               
# -------------------------------------------------------------------------------------------------------------------------------------------
# req                            apb_transaction   -     @1441                                                                               
#   paddr                        integral          12    'h4                                                                                 
#   pwdata                       integral          32    'h5c6ea591                                                                          
#   pwrite                       integral          1     'h0                                                                                 
#   pstrb                        integral          4     'h1                                                                                 
#   prdata                       integral          32    'h0                                                                                 
#   pslverr                      integral          1     'h0X                                                                                
#   addr_type                    addr_test_type_e  32    ADDR_RO                                                                             
#   write_true_flase             write_quality_e   32    WRITE_ADDR_FALSE                                                                    
#   begin_time                   time              64    656950000                                                                           
#   depth                        int               32    'd4                                                                                 
#   parent sequence (name)       string            12    apb_data_seq                                                                        
#   parent sequence (full name)  string            84    uvm_test_top.env.vir_seqr.vseq_receive_N_RX_ErrorInject.par_err_rx_vseq.apb_data_seq
#   sequencer                    string            41    uvm_test_top.env.apb_uvcc.agent.sequencer                                           
# -------------------------------------------------------------------------------------------------------------------------------------------
# 
# UVM_INFO ../apb_uvc/apb_seqs.sv(121) @ 656990000: uvm_test_top.env.apb_uvcc.agent.sequencer@@vseq_receive_N_RX_ErrorInject.par_err_rx_vseq.apb_data_seq [APB_RX_SEQ] Read RX with DATA: 00000000
# UVM_ERROR ../tb/uart_virseqs.sv(480) @ 656990000: uvm_test_top.env.vir_seqr@@vseq_receive_N_RX_ErrorInject.par_err_rx_vseq [ASSERT] DUT: RX_DONE failed to set! STT_REG = 0x0
# UVM_ERROR ../tb/uart_virseqs.sv(487) @ 656990000: uvm_test_top.env.vir_seqr@@vseq_receive_N_RX_ErrorInject.par_err_rx_vseq [ASSERT] FAILED: DUT never asserted internal parity_error signal despite BAD_PARITY injection!
# UVM_INFO ../tb/uart_virseqs.sv(472) @ 656990000: uvm_test_top.env.vir_seqr@@vseq_receive_N_RX_ErrorInject.par_err_rx_vseq [VSEQ_ERR] === ERROR INJECTION TEST COMPLETED ===
# UVM_INFO ../tb/uart_virseqs.sv(510) @ 656990000: uvm_test_top.env.vir_seqr@@vseq_receive_N_RX_ErrorInject [VSEQ_N] 
#####========================Executing FRAME 6/56...========================#####
# UVM_INFO ../tb/uart_virseqs.sv(408) @ 656990000: uvm_test_top.env.vir_seqr@@vseq_receive_N_RX_ErrorInject.par_err_rx_vseq [VSEQ_ERR] === STARTING BACKDOOR PARITY ERROR INJECTION TEST ===
# UVM_INFO ../tb/uart_virseqs.sv(66) @ 656990000: uvm_test_top.env.vir_seqr@@vseq_receive_N_RX_ErrorInject.par_err_rx_vseq.config_vseq [VSEQ] Configuring System using shared object from Test...
# UVM_INFO ../apb_uvc/apb_seqs.sv(62) @ 656990000: uvm_test_top.env.apb_uvcc.agent.sequencer@@apb_seq [APB_WR_SEQ] Writing Config to DUT: 0x00000018 
#  (DATA_5BIT, PARITY_EN, PARITY_EVEN, STOP_1BIT)
# UVM_INFO ../tb/apb_uart_scoreboard.sv(73) @ 656990000: uvm_test_top.env.scoreboard [SB_APB] APB<-RXDATA queued: 0x00
# UVM_ERROR ../tb/apb_uart_scoreboard.sv(190) @ 656990000: uvm_test_top.env.scoreboard [SB_RX] Mismatch APB<-RXDATA vs UART_RX! bits=5 EXP=0x01 ACT=0x00 (raw UART=0x0b raw APB=0x00)
# UVM_INFO ../apb_uvc/apb_driver.sv(52) @ 657050000: uvm_test_top.env.apb_uvcc.agent.driver [apb_driver] APB Transaction:
# --------------------------------------------------------------------------------------------------------
# Name                           Type              Size  Value                                            
# --------------------------------------------------------------------------------------------------------
# req                            apb_transaction   -     @1467                                            
#   paddr                        integral          12    'h8                                              
#   pwdata                       integral          32    'h18                                             
#   pwrite                       integral          1     'h1                                              
#   pstrb                        integral          4     'h1                                              
#   prdata                       integral          32    'h0xxxxxxxx                                      
#   pslverr                      integral          1     'h0X                                             
#   addr_type                    addr_test_type_e  32    ADDR_VALID                                       
#   write_true_flase             write_quality_e   32    WRITE_ADDR_TRUE                                  
#   begin_time                   time              64    657010000                                        
#   depth                        int               32    'd2                                              
#   parent sequence (name)       string            7     apb_seq                                          
#   parent sequence (full name)  string            49    uvm_test_top.env.apb_uvcc.agent.sequencer.apb_seq
#   sequencer                    string            41    uvm_test_top.env.apb_uvcc.agent.sequencer        
# --------------------------------------------------------------------------------------------------------
# 
# UVM_INFO ../tb/uart_virseqs.sv(74) @ 657050000: uvm_test_top.env.vir_seqr@@vseq_receive_N_RX_ErrorInject.par_err_rx_vseq.config_vseq [VSEQ] Activating UART Driver for RX path
# UVM_INFO ../uart_uvc/uart_seqs.sv(55) @ 657050000: uvm_test_top.env.uart_uvcc.agent.sequencer@@uart_seq [UART_CONFIG_FRAME_SEQ] Driving UART Transaction based on Shared Config
# UVM_INFO ../apb_uvc/apb_monitor.sv(52) @ 657050000: uvm_test_top.env.apb_uvcc.agent.monitor [MON] Updating UART Configuration
# UVM_INFO ../uart_uvc/uart_driver.sv(58) @ 657050000: uvm_test_top.env.uart_uvcc.agent.driver [uart_driver] 
#####===Driving Trans: DATA=0x01,DATA_5BIT, STOP_1BIT, PARITY_EN, PARITY_EVEN===#####
# UVM_ERROR ../tb/apb_uart_scoreboard.sv(232) @ 657060000: uvm_test_top.env.scoreboard [SB_CFG_HDL] CFG mismatch!
#   DUT: data_bit_num=0 stop_bit_num=0 parity_en=0 parity_type=0
#   CFG: data_bit_num=0 stop_bit_num=0 parity_en=1 parity_type=1
# UVM_INFO ../uart_uvc/uart_driver.sv(86) @ 709136000: uvm_test_top.env.uart_uvcc.agent.driver [uart_driver] Injecting Parity Error!
# UVM_INFO ../tb/apb_uart_scoreboard.sv(98) @ 726490000: uvm_test_top.env.scoreboard [SB_UART] UART RX queued: 0x01
# UVM_INFO ../uart_uvc/uart_monitor.sv(131) @ 726490000: uvm_test_top.env.uart_uvcc.agent.monitor [MON_RX] DATA is monitored from RX: 0x01
# UVM_INFO ../apb_uvc/apb_seqs.sv(134) @ 788262000: uvm_test_top.env.apb_uvcc.agent.sequencer@@vseq_receive_N_RX_ErrorInject.par_err_rx_vseq.apb_stt_seq [read_status_reg_seq] Reading UART Status Register (0x10)
# UVM_INFO ../apb_uvc/apb_driver.sv(52) @ 788310000: uvm_test_top.env.apb_uvcc.agent.driver [apb_driver] APB Transaction:
# ------------------------------------------------------------------------------------------------------------------------------------------
# Name                           Type              Size  Value                                                                              
# ------------------------------------------------------------------------------------------------------------------------------------------
# req                            apb_transaction   -     @1499                                                                              
#   paddr                        integral          12    'h10                                                                               
#   pwdata                       integral          32    'hc4577f97                                                                         
#   pwrite                       integral          1     'h0                                                                                
#   pstrb                        integral          4     'h1                                                                                
#   prdata                       integral          32    'h0                                                                                
#   pslverr                      integral          1     'h0X                                                                               
#   addr_type                    addr_test_type_e  32    ADDR_RO                                                                            
#   write_true_flase             write_quality_e   32    WRITE_ADDR_TRUE                                                                    
#   begin_time                   time              64    788270000                                                                          
#   depth                        int               32    'd4                                                                                
#   parent sequence (name)       string            11    apb_stt_seq                                                                        
#   parent sequence (full name)  string            83    uvm_test_top.env.vir_seqr.vseq_receive_N_RX_ErrorInject.par_err_rx_vseq.apb_stt_seq
#   sequencer                    string            41    uvm_test_top.env.apb_uvcc.agent.sequencer                                          
# ------------------------------------------------------------------------------------------------------------------------------------------
# 
# UVM_INFO ../tb/uart_virseqs.sv(466) @ 788310000: uvm_test_top.env.vir_seqr@@vseq_receive_N_RX_ErrorInject.par_err_rx_vseq [VSEQ_ERR] Reading RX Data Register (0x04) to trigger Scoreboard
# UVM_INFO ../apb_uvc/apb_driver.sv(52) @ 788370000: uvm_test_top.env.apb_uvcc.agent.driver [apb_driver] APB Transaction:
# -------------------------------------------------------------------------------------------------------------------------------------------
# Name                           Type              Size  Value                                                                               
# -------------------------------------------------------------------------------------------------------------------------------------------
# req                            apb_transaction   -     @1511                                                                               
#   paddr                        integral          12    'h4                                                                                 
#   pwdata                       integral          32    'h3610f705                                                                          
#   pwrite                       integral          1     'h0                                                                                 
#   pstrb                        integral          4     'h0                                                                                 
#   prdata                       integral          32    'h0                                                                                 
#   pslverr                      integral          1     'h0X                                                                                
#   addr_type                    addr_test_type_e  32    ADDR_RO                                                                             
#   write_true_flase             write_quality_e   32    WRITE_ADDR_TRUE                                                                     
#   begin_time                   time              64    788330000                                                                           
#   depth                        int               32    'd4                                                                                 
#   parent sequence (name)       string            12    apb_data_seq                                                                        
#   parent sequence (full name)  string            84    uvm_test_top.env.vir_seqr.vseq_receive_N_RX_ErrorInject.par_err_rx_vseq.apb_data_seq
#   sequencer                    string            41    uvm_test_top.env.apb_uvcc.agent.sequencer                                           
# -------------------------------------------------------------------------------------------------------------------------------------------
# 
# UVM_INFO ../apb_uvc/apb_seqs.sv(121) @ 788370000: uvm_test_top.env.apb_uvcc.agent.sequencer@@vseq_receive_N_RX_ErrorInject.par_err_rx_vseq.apb_data_seq [APB_RX_SEQ] Read RX with DATA: 00000000
# UVM_ERROR ../tb/uart_virseqs.sv(480) @ 788370000: uvm_test_top.env.vir_seqr@@vseq_receive_N_RX_ErrorInject.par_err_rx_vseq [ASSERT] DUT: RX_DONE failed to set! STT_REG = 0x0
# UVM_ERROR ../tb/uart_virseqs.sv(487) @ 788370000: uvm_test_top.env.vir_seqr@@vseq_receive_N_RX_ErrorInject.par_err_rx_vseq [ASSERT] FAILED: DUT never asserted internal parity_error signal despite BAD_PARITY injection!
# UVM_INFO ../tb/uart_virseqs.sv(472) @ 788370000: uvm_test_top.env.vir_seqr@@vseq_receive_N_RX_ErrorInject.par_err_rx_vseq [VSEQ_ERR] === ERROR INJECTION TEST COMPLETED ===
# UVM_INFO ../tb/uart_virseqs.sv(510) @ 788370000: uvm_test_top.env.vir_seqr@@vseq_receive_N_RX_ErrorInject [VSEQ_N] 
#####========================Executing FRAME 7/56...========================#####
# UVM_INFO ../tb/uart_virseqs.sv(408) @ 788370000: uvm_test_top.env.vir_seqr@@vseq_receive_N_RX_ErrorInject.par_err_rx_vseq [VSEQ_ERR] === STARTING BACKDOOR PARITY ERROR INJECTION TEST ===
# UVM_INFO ../tb/uart_virseqs.sv(66) @ 788370000: uvm_test_top.env.vir_seqr@@vseq_receive_N_RX_ErrorInject.par_err_rx_vseq.config_vseq [VSEQ] Configuring System using shared object from Test...
# UVM_INFO ../apb_uvc/apb_seqs.sv(62) @ 788370000: uvm_test_top.env.apb_uvcc.agent.sequencer@@apb_seq [APB_WR_SEQ] Writing Config to DUT: 0x00000018 
#  (DATA_5BIT, PARITY_EN, PARITY_EVEN, STOP_1BIT)
# UVM_INFO ../tb/apb_uart_scoreboard.sv(73) @ 788370000: uvm_test_top.env.scoreboard [SB_APB] APB<-RXDATA queued: 0x00
# UVM_ERROR ../tb/apb_uart_scoreboard.sv(190) @ 788370000: uvm_test_top.env.scoreboard [SB_RX] Mismatch APB<-RXDATA vs UART_RX! bits=5 EXP=0x01 ACT=0x00 (raw UART=0x01 raw APB=0x00)
# UVM_INFO ../apb_uvc/apb_driver.sv(52) @ 788430000: uvm_test_top.env.apb_uvcc.agent.driver [apb_driver] APB Transaction:
# --------------------------------------------------------------------------------------------------------
# Name                           Type              Size  Value                                            
# --------------------------------------------------------------------------------------------------------
# req                            apb_transaction   -     @1537                                            
#   paddr                        integral          12    'h8                                              
#   pwdata                       integral          32    'h18                                             
#   pwrite                       integral          1     'h1                                              
#   pstrb                        integral          4     'h1                                              
#   prdata                       integral          32    'h0xxxxxxxx                                      
#   pslverr                      integral          1     'h0X                                             
#   addr_type                    addr_test_type_e  32    ADDR_VALID                                       
#   write_true_flase             write_quality_e   32    WRITE_ADDR_FALSE                                 
#   begin_time                   time              64    788390000                                        
#   depth                        int               32    'd2                                              
#   parent sequence (name)       string            7     apb_seq                                          
#   parent sequence (full name)  string            49    uvm_test_top.env.apb_uvcc.agent.sequencer.apb_seq
#   sequencer                    string            41    uvm_test_top.env.apb_uvcc.agent.sequencer        
# --------------------------------------------------------------------------------------------------------
# 
# UVM_INFO ../tb/uart_virseqs.sv(74) @ 788430000: uvm_test_top.env.vir_seqr@@vseq_receive_N_RX_ErrorInject.par_err_rx_vseq.config_vseq [VSEQ] Activating UART Driver for RX path
# UVM_INFO ../uart_uvc/uart_seqs.sv(55) @ 788430000: uvm_test_top.env.uart_uvcc.agent.sequencer@@uart_seq [UART_CONFIG_FRAME_SEQ] Driving UART Transaction based on Shared Config
# UVM_INFO ../apb_uvc/apb_monitor.sv(52) @ 788430000: uvm_test_top.env.apb_uvcc.agent.monitor [MON] Updating UART Configuration
# UVM_INFO ../uart_uvc/uart_driver.sv(58) @ 788430000: uvm_test_top.env.uart_uvcc.agent.driver [uart_driver] 
#####===Driving Trans: DATA=0x13,DATA_5BIT, STOP_1BIT, PARITY_EN, PARITY_EVEN===#####
# UVM_ERROR ../tb/apb_uart_scoreboard.sv(232) @ 788440000: uvm_test_top.env.scoreboard [SB_CFG_HDL] CFG mismatch!
#   DUT: data_bit_num=0 stop_bit_num=0 parity_en=0 parity_type=0
#   CFG: data_bit_num=0 stop_bit_num=0 parity_en=1 parity_type=1
# UVM_INFO ../uart_uvc/uart_driver.sv(86) @ 840516000: uvm_test_top.env.uart_uvcc.agent.driver [uart_driver] Injecting Parity Error!
# UVM_INFO ../tb/apb_uart_scoreboard.sv(98) @ 857870000: uvm_test_top.env.scoreboard [SB_UART] UART RX queued: 0x13
# UVM_INFO ../uart_uvc/uart_monitor.sv(131) @ 857870000: uvm_test_top.env.uart_uvcc.agent.monitor [MON_RX] DATA is monitored from RX: 0x13
# UVM_INFO ../apb_uvc/apb_seqs.sv(134) @ 919642000: uvm_test_top.env.apb_uvcc.agent.sequencer@@vseq_receive_N_RX_ErrorInject.par_err_rx_vseq.apb_stt_seq [read_status_reg_seq] Reading UART Status Register (0x10)
# UVM_INFO ../apb_uvc/apb_driver.sv(52) @ 919690000: uvm_test_top.env.apb_uvcc.agent.driver [apb_driver] APB Transaction:
# ------------------------------------------------------------------------------------------------------------------------------------------
# Name                           Type              Size  Value                                                                              
# ------------------------------------------------------------------------------------------------------------------------------------------
# req                            apb_transaction   -     @1569                                                                              
#   paddr                        integral          12    'h10                                                                               
#   pwdata                       integral          32    'h25135139                                                                         
#   pwrite                       integral          1     'h0                                                                                
#   pstrb                        integral          4     'h1                                                                                
#   prdata                       integral          32    'h0                                                                                
#   pslverr                      integral          1     'h0X                                                                               
#   addr_type                    addr_test_type_e  32    ADDR_RO                                                                            
#   write_true_flase             write_quality_e   32    WRITE_ADDR_TRUE                                                                    
#   begin_time                   time              64    919650000                                                                          
#   depth                        int               32    'd4                                                                                
#   parent sequence (name)       string            11    apb_stt_seq                                                                        
#   parent sequence (full name)  string            83    uvm_test_top.env.vir_seqr.vseq_receive_N_RX_ErrorInject.par_err_rx_vseq.apb_stt_seq
#   sequencer                    string            41    uvm_test_top.env.apb_uvcc.agent.sequencer                                          
# ------------------------------------------------------------------------------------------------------------------------------------------
# 
# UVM_INFO ../tb/uart_virseqs.sv(466) @ 919690000: uvm_test_top.env.vir_seqr@@vseq_receive_N_RX_ErrorInject.par_err_rx_vseq [VSEQ_ERR] Reading RX Data Register (0x04) to trigger Scoreboard
# UVM_INFO ../apb_uvc/apb_driver.sv(52) @ 919750000: uvm_test_top.env.apb_uvcc.agent.driver [apb_driver] APB Transaction:
# -------------------------------------------------------------------------------------------------------------------------------------------
# Name                           Type              Size  Value                                                                               
# -------------------------------------------------------------------------------------------------------------------------------------------
# req                            apb_transaction   -     @1581                                                                               
#   paddr                        integral          12    'h4                                                                                 
#   pwdata                       integral          32    'h25024e6d                                                                          
#   pwrite                       integral          1     'h0                                                                                 
#   pstrb                        integral          4     'h0                                                                                 
#   prdata                       integral          32    'h0                                                                                 
#   pslverr                      integral          1     'h0X                                                                                
#   addr_type                    addr_test_type_e  32    ADDR_RO                                                                             
#   write_true_flase             write_quality_e   32    WRITE_ADDR_TRUE                                                                     
#   begin_time                   time              64    919710000                                                                           
#   depth                        int               32    'd4                                                                                 
#   parent sequence (name)       string            12    apb_data_seq                                                                        
#   parent sequence (full name)  string            84    uvm_test_top.env.vir_seqr.vseq_receive_N_RX_ErrorInject.par_err_rx_vseq.apb_data_seq
#   sequencer                    string            41    uvm_test_top.env.apb_uvcc.agent.sequencer                                           
# -------------------------------------------------------------------------------------------------------------------------------------------
# 
# UVM_INFO ../apb_uvc/apb_seqs.sv(121) @ 919750000: uvm_test_top.env.apb_uvcc.agent.sequencer@@vseq_receive_N_RX_ErrorInject.par_err_rx_vseq.apb_data_seq [APB_RX_SEQ] Read RX with DATA: 00000000
# UVM_ERROR ../tb/uart_virseqs.sv(480) @ 919750000: uvm_test_top.env.vir_seqr@@vseq_receive_N_RX_ErrorInject.par_err_rx_vseq [ASSERT] DUT: RX_DONE failed to set! STT_REG = 0x0
# UVM_ERROR ../tb/uart_virseqs.sv(487) @ 919750000: uvm_test_top.env.vir_seqr@@vseq_receive_N_RX_ErrorInject.par_err_rx_vseq [ASSERT] FAILED: DUT never asserted internal parity_error signal despite BAD_PARITY injection!
# UVM_INFO ../tb/uart_virseqs.sv(472) @ 919750000: uvm_test_top.env.vir_seqr@@vseq_receive_N_RX_ErrorInject.par_err_rx_vseq [VSEQ_ERR] === ERROR INJECTION TEST COMPLETED ===
# UVM_INFO ../tb/uart_virseqs.sv(510) @ 919750000: uvm_test_top.env.vir_seqr@@vseq_receive_N_RX_ErrorInject [VSEQ_N] 
#####========================Executing FRAME 8/56...========================#####
# UVM_INFO ../tb/uart_virseqs.sv(408) @ 919750000: uvm_test_top.env.vir_seqr@@vseq_receive_N_RX_ErrorInject.par_err_rx_vseq [VSEQ_ERR] === STARTING BACKDOOR PARITY ERROR INJECTION TEST ===
# UVM_INFO ../tb/uart_virseqs.sv(66) @ 919750000: uvm_test_top.env.vir_seqr@@vseq_receive_N_RX_ErrorInject.par_err_rx_vseq.config_vseq [VSEQ] Configuring System using shared object from Test...
# UVM_INFO ../apb_uvc/apb_seqs.sv(62) @ 919750000: uvm_test_top.env.apb_uvcc.agent.sequencer@@apb_seq [APB_WR_SEQ] Writing Config to DUT: 0x00000018 
#  (DATA_5BIT, PARITY_EN, PARITY_EVEN, STOP_1BIT)
# UVM_INFO ../tb/apb_uart_scoreboard.sv(73) @ 919750000: uvm_test_top.env.scoreboard [SB_APB] APB<-RXDATA queued: 0x00
# UVM_ERROR ../tb/apb_uart_scoreboard.sv(190) @ 919750000: uvm_test_top.env.scoreboard [SB_RX] Mismatch APB<-RXDATA vs UART_RX! bits=5 EXP=0x01 ACT=0x00 (raw UART=0x13 raw APB=0x00)
# UVM_INFO ../apb_uvc/apb_driver.sv(52) @ 919810000: uvm_test_top.env.apb_uvcc.agent.driver [apb_driver] APB Transaction:
# --------------------------------------------------------------------------------------------------------
# Name                           Type              Size  Value                                            
# --------------------------------------------------------------------------------------------------------
# req                            apb_transaction   -     @1607                                            
#   paddr                        integral          12    'h8                                              
#   pwdata                       integral          32    'h18                                             
#   pwrite                       integral          1     'h1                                              
#   pstrb                        integral          4     'h1                                              
#   prdata                       integral          32    'h0xxxxxxxx                                      
#   pslverr                      integral          1     'h0X                                             
#   addr_type                    addr_test_type_e  32    ADDR_VALID                                       
#   write_true_flase             write_quality_e   32    WRITE_ADDR_FALSE                                 
#   begin_time                   time              64    919770000                                        
#   depth                        int               32    'd2                                              
#   parent sequence (name)       string            7     apb_seq                                          
#   parent sequence (full name)  string            49    uvm_test_top.env.apb_uvcc.agent.sequencer.apb_seq
#   sequencer                    string            41    uvm_test_top.env.apb_uvcc.agent.sequencer        
# --------------------------------------------------------------------------------------------------------
# 
# UVM_INFO ../tb/uart_virseqs.sv(74) @ 919810000: uvm_test_top.env.vir_seqr@@vseq_receive_N_RX_ErrorInject.par_err_rx_vseq.config_vseq [VSEQ] Activating UART Driver for RX path
# UVM_INFO ../uart_uvc/uart_seqs.sv(55) @ 919810000: uvm_test_top.env.uart_uvcc.agent.sequencer@@uart_seq [UART_CONFIG_FRAME_SEQ] Driving UART Transaction based on Shared Config
# UVM_INFO ../apb_uvc/apb_monitor.sv(52) @ 919810000: uvm_test_top.env.apb_uvcc.agent.monitor [MON] Updating UART Configuration
# UVM_INFO ../uart_uvc/uart_driver.sv(58) @ 919810000: uvm_test_top.env.uart_uvcc.agent.driver [uart_driver] 
#####===Driving Trans: DATA=0x08,DATA_5BIT, STOP_1BIT, PARITY_EN, PARITY_EVEN===#####
# UVM_ERROR ../tb/apb_uart_scoreboard.sv(232) @ 919820000: uvm_test_top.env.scoreboard [SB_CFG_HDL] CFG mismatch!
#   DUT: data_bit_num=0 stop_bit_num=0 parity_en=0 parity_type=0
#   CFG: data_bit_num=0 stop_bit_num=0 parity_en=1 parity_type=1
# UVM_INFO ../uart_uvc/uart_driver.sv(86) @ 971896000: uvm_test_top.env.uart_uvcc.agent.driver [uart_driver] Injecting Parity Error!
# UVM_INFO ../tb/apb_uart_scoreboard.sv(98) @ 989250000: uvm_test_top.env.scoreboard [SB_UART] UART RX queued: 0x08
# UVM_INFO ../uart_uvc/uart_monitor.sv(131) @ 989250000: uvm_test_top.env.uart_uvcc.agent.monitor [MON_RX] DATA is monitored from RX: 0x08
# UVM_INFO ../apb_uvc/apb_seqs.sv(134) @ 1051022000: uvm_test_top.env.apb_uvcc.agent.sequencer@@vseq_receive_N_RX_ErrorInject.par_err_rx_vseq.apb_stt_seq [read_status_reg_seq] Reading UART Status Register (0x10)
# UVM_INFO ../apb_uvc/apb_driver.sv(52) @ 1051070000: uvm_test_top.env.apb_uvcc.agent.driver [apb_driver] APB Transaction:
# ------------------------------------------------------------------------------------------------------------------------------------------
# Name                           Type              Size  Value                                                                              
# ------------------------------------------------------------------------------------------------------------------------------------------
# req                            apb_transaction   -     @1639                                                                              
#   paddr                        integral          12    'h10                                                                               
#   pwdata                       integral          32    'hbf7d774e                                                                         
#   pwrite                       integral          1     'h0                                                                                
#   pstrb                        integral          4     'h1                                                                                
#   prdata                       integral          32    'h0                                                                                
#   pslverr                      integral          1     'h0X                                                                               
#   addr_type                    addr_test_type_e  32    ADDR_RO                                                                            
#   write_true_flase             write_quality_e   32    WRITE_ADDR_FALSE                                                                   
#   begin_time                   time              64    1051030000                                                                         
#   depth                        int               32    'd4                                                                                
#   parent sequence (name)       string            11    apb_stt_seq                                                                        
#   parent sequence (full name)  string            83    uvm_test_top.env.vir_seqr.vseq_receive_N_RX_ErrorInject.par_err_rx_vseq.apb_stt_seq
#   sequencer                    string            41    uvm_test_top.env.apb_uvcc.agent.sequencer                                          
# ------------------------------------------------------------------------------------------------------------------------------------------
# 
# UVM_INFO ../tb/uart_virseqs.sv(466) @ 1051070000: uvm_test_top.env.vir_seqr@@vseq_receive_N_RX_ErrorInject.par_err_rx_vseq [VSEQ_ERR] Reading RX Data Register (0x04) to trigger Scoreboard
# UVM_INFO ../apb_uvc/apb_driver.sv(52) @ 1051130000: uvm_test_top.env.apb_uvcc.agent.driver [apb_driver] APB Transaction:
# -------------------------------------------------------------------------------------------------------------------------------------------
# Name                           Type              Size  Value                                                                               
# -------------------------------------------------------------------------------------------------------------------------------------------
# req                            apb_transaction   -     @1651                                                                               
#   paddr                        integral          12    'h4                                                                                 
#   pwdata                       integral          32    'hfe689af                                                                           
#   pwrite                       integral          1     'h0                                                                                 
#   pstrb                        integral          4     'h0                                                                                 
#   prdata                       integral          32    'h0                                                                                 
#   pslverr                      integral          1     'h0X                                                                                
#   addr_type                    addr_test_type_e  32    ADDR_RO                                                                             
#   write_true_flase             write_quality_e   32    WRITE_ADDR_FALSE                                                                    
#   begin_time                   time              64    1051090000                                                                          
#   depth                        int               32    'd4                                                                                 
#   parent sequence (name)       string            12    apb_data_seq                                                                        
#   parent sequence (full name)  string            84    uvm_test_top.env.vir_seqr.vseq_receive_N_RX_ErrorInject.par_err_rx_vseq.apb_data_seq
#   sequencer                    string            41    uvm_test_top.env.apb_uvcc.agent.sequencer                                           
# -------------------------------------------------------------------------------------------------------------------------------------------
# 
# UVM_INFO ../apb_uvc/apb_seqs.sv(121) @ 1051130000: uvm_test_top.env.apb_uvcc.agent.sequencer@@vseq_receive_N_RX_ErrorInject.par_err_rx_vseq.apb_data_seq [APB_RX_SEQ] Read RX with DATA: 00000000
# UVM_ERROR ../tb/uart_virseqs.sv(480) @ 1051130000: uvm_test_top.env.vir_seqr@@vseq_receive_N_RX_ErrorInject.par_err_rx_vseq [ASSERT] DUT: RX_DONE failed to set! STT_REG = 0x0
# UVM_ERROR ../tb/uart_virseqs.sv(487) @ 1051130000: uvm_test_top.env.vir_seqr@@vseq_receive_N_RX_ErrorInject.par_err_rx_vseq [ASSERT] FAILED: DUT never asserted internal parity_error signal despite BAD_PARITY injection!
# UVM_INFO ../tb/uart_virseqs.sv(472) @ 1051130000: uvm_test_top.env.vir_seqr@@vseq_receive_N_RX_ErrorInject.par_err_rx_vseq [VSEQ_ERR] === ERROR INJECTION TEST COMPLETED ===
# UVM_INFO ../tb/uart_virseqs.sv(510) @ 1051130000: uvm_test_top.env.vir_seqr@@vseq_receive_N_RX_ErrorInject [VSEQ_N] 
#####========================Executing FRAME 9/56...========================#####
# UVM_INFO ../tb/uart_virseqs.sv(408) @ 1051130000: uvm_test_top.env.vir_seqr@@vseq_receive_N_RX_ErrorInject.par_err_rx_vseq [VSEQ_ERR] === STARTING BACKDOOR PARITY ERROR INJECTION TEST ===
# UVM_INFO ../tb/uart_virseqs.sv(66) @ 1051130000: uvm_test_top.env.vir_seqr@@vseq_receive_N_RX_ErrorInject.par_err_rx_vseq.config_vseq [VSEQ] Configuring System using shared object from Test...
# UVM_INFO ../apb_uvc/apb_seqs.sv(62) @ 1051130000: uvm_test_top.env.apb_uvcc.agent.sequencer@@apb_seq [APB_WR_SEQ] Writing Config to DUT: 0x00000018 
#  (DATA_5BIT, PARITY_EN, PARITY_EVEN, STOP_1BIT)
# UVM_INFO ../tb/apb_uart_scoreboard.sv(73) @ 1051130000: uvm_test_top.env.scoreboard [SB_APB] APB<-RXDATA queued: 0x00
# UVM_INFO ../tb/apb_uart_scoreboard.sv(202) @ 1051130000: uvm_test_top.env.scoreboard [SB_RX] Match UART_RX == APB<-RXDATA == 0x00 (bits=5)
# UVM_INFO ../apb_uvc/apb_driver.sv(52) @ 1051190000: uvm_test_top.env.apb_uvcc.agent.driver [apb_driver] APB Transaction:
# --------------------------------------------------------------------------------------------------------
# Name                           Type              Size  Value                                            
# --------------------------------------------------------------------------------------------------------
# req                            apb_transaction   -     @1677                                            
#   paddr                        integral          12    'h8                                              
#   pwdata                       integral          32    'h18                                             
#   pwrite                       integral          1     'h1                                              
#   pstrb                        integral          4     'h1                                              
#   prdata                       integral          32    'h0xxxxxxxx                                      
#   pslverr                      integral          1     'h0X                                             
#   addr_type                    addr_test_type_e  32    ADDR_VALID                                       
#   write_true_flase             write_quality_e   32    WRITE_ADDR_TRUE                                  
#   begin_time                   time              64    1051150000                                       
#   depth                        int               32    'd2                                              
#   parent sequence (name)       string            7     apb_seq                                          
#   parent sequence (full name)  string            49    uvm_test_top.env.apb_uvcc.agent.sequencer.apb_seq
#   sequencer                    string            41    uvm_test_top.env.apb_uvcc.agent.sequencer        
# --------------------------------------------------------------------------------------------------------
# 
