# vsim -c tb_top hw_top -wlf vsim.wlf -sv_seed random -coverage -voptargs="+acc" -l ./log/vsim.log "+UVM_VERBOSITY=UVM_HIGH" "+UVM_TESTNAME=test_send_N_frame" -sv_lib uvm_dpi -do "coverage save -onexit -testname test_send_N_frame coverage.ucdb; log -r /*; add wave -r /*; run -all; quit" 
# Start time: 04:23:30 on Jan 27,2026
# ** Note: (vsim-3812) Design is being optimized...
# ** Note: (vopt-143) Recognized 2 FSMs in module "uart(fast)".
# //  Questa Sim-64
# //  Version 10.7c linux_x86_64 Aug 17 2018
# //
# //  Copyright 1991-2018 Mentor Graphics Corporation
# //  All Rights Reserved.
# //
# //  QuestaSim and its associated documentation contain trade
# //  secrets and commercial or financial information that are the property of
# //  Mentor Graphics Corporation and are privileged, confidential,
# //  and exempt from disclosure under the Freedom of Information Act,
# //  5 U.S.C. Section 552. Furthermore, this information
# //  is prohibited from disclosure under the Trade Secrets Act,
# //  18 U.S.C. Section 1905.
# //
# Loading sv_std.std
# Loading work.apb_if(fast)
# Loading work.uart_if(fast)
# Loading mtiUvm.uvm_pkg
# Loading work.uart_common_pkg(fast)
# Loading work.uart_pkg(fast)
# Loading work.apb_pkg(fast)
# Loading work.uart_tb_pkg(fast)
# Loading work.tb_top(fast)
# Loading work.hw_top(fast)
# Loading work.apb_if_sv_unit(fast)
# Loading work.apb_if(fast)
# Loading work.uart_if_sv_unit(fast)
# Loading work.uart_if(fast)
# Loading work.uart(fast)
# Loading mtiUvm.questa_uvm_pkg(fast)
# Loading ./uvm_dpi.so
# Sv_Seed = 2942026871
# coverage save -onexit -testname test_send_N_frame coverage.ucdb
#  log -r /*
#  add wave -r /*
#  run -all
# ----------------------------------------------------------------
# UVM-1.1d
# (C) 2007-2013 Mentor Graphics Corporation
# (C) 2007-2013 Cadence Design Systems, Inc.
# (C) 2006-2013 Synopsys, Inc.
# (C) 2011-2013 Cypress Semiconductor Corp.
# ----------------------------------------------------------------
# 
#   ***********       IMPORTANT RELEASE NOTES         ************
# 
#   You are using a version of the UVM library that has been compiled
#   with `UVM_NO_DEPRECATED undefined.
#   See http://www.eda.org/svdb/view.php?id=3313 for more details.
# 
#   You are using a version of the UVM library that has been compiled
#   with `UVM_OBJECT_MUST_HAVE_CONSTRUCTOR undefined.
#   See http://www.eda.org/svdb/view.php?id=3770 for more details.
# 
#       (Specify +UVM_NO_RELNOTES to turn off this notice)
# 
# UVM_INFO verilog_src/questa_uvm_pkg-1.2/src/questa_uvm_pkg.sv(215) @ 0: reporter [Questa UVM] QUESTA_UVM-1.2.3
# UVM_INFO verilog_src/questa_uvm_pkg-1.2/src/questa_uvm_pkg.sv(216) @ 0: reporter [Questa UVM]  questa_uvm::init(+struct)
# UVM_INFO @ 0: reporter [RNTST] Running test test_send_N_frame...
# UVM_INFO ../tb/apb_uart_testlib.sv(116) @ 0: uvm_test_top [TEST] 
####======================== SEND N FRAME configured (TX Monitoring Only) ========================#####
# UVM_INFO ../tb/apb_uart_env.sv(17) @ 0: uvm_test_top.env [APB_UART_ENVIRONMENT] The env is being build phase
# UVM_INFO ../uart_uvc/uart_agent.sv(25) @ 0: uvm_test_top.env.uart_uvcc.agent [uart_agent] Agent set to PASSIVE (TX Only monitoring)
# UVM_INFO ../tb/apb_uart_testlib.sv(32) @ 0: uvm_test_top [test_send_N_frame] Printing topology:
# UVM_INFO @ 0: reporter [UVMTOP] UVM testbench topology:
# ------------------------------------------------------------------------
# Name                           Type                     Size  Value     
# ------------------------------------------------------------------------
# uvm_test_top                   test_send_N_frame        -     @476      
#   env                          apb_uart_env             -     @494      
#     apb_uvcc                   apb_uvc                  -     @502      
#       agent                    apb_agent                -     @652      
#         driver                 apb_driver               -     @787      
#           rsp_port             uvm_analysis_port        -     @802      
#           seq_item_port        uvm_seq_item_pull_port   -     @794      
#           num_trans            integral                 32    'h0       
#         monitor                apb_coverage_monitor     -     @663      
#           item_collected_port  uvm_analysis_port        -     @670      
#           num_trans_col        integral                 32    'h0       
#           coverage_control     cover_e                  1     COV_ENABLE
#         sequencer              apb_sequencer            -     @678      
#           rsp_export           uvm_analysis_export      -     @685      
#           seq_item_export      uvm_seq_item_pull_imp    -     @779      
#           arbitration_queue    array                    0     -         
#           lock_queue           array                    0     -         
#           num_last_reqs        integral                 32    'd1       
#           num_last_rsps        integral                 32    'd1       
#         is_active              uvm_active_passive_enum  1     UVM_ACTIVE
#     scoreboard                 apb_uart_scoreboard      -     @516      
#       apb_port                 uvm_analysis_imp_apb     -     @523      
#       uart_port                uvm_analysis_imp_uart    -     @531      
#     uart_uvcc                  uart_uvc                 -     @509      
#       agent                    uart_agent               -     @825      
#         monitor                uart_coverage_monitor    -     @834      
#           item_collected_port  uvm_analysis_port        -     @841      
#     vir_seqr                   uart_virsequencer        -     @539      
#       rsp_export               uvm_analysis_export      -     @546      
#       seq_item_export          uvm_seq_item_pull_imp    -     @640      
#       arbitration_queue        array                    0     -         
#       lock_queue               array                    0     -         
#       num_last_reqs            integral                 32    'd1       
#       num_last_rsps            integral                 32    'd1       
# ------------------------------------------------------------------------
# 
# UVM_INFO verilog_src/questa_uvm_pkg-1.2/src/questa_uvm_pkg.sv(277) @ 0: reporter [Questa UVM] End Of Elaboration
# UVM_INFO ../apb_uvc/apb_driver.sv(22) @ 0: uvm_test_top.env.apb_uvcc.agent.driver [apb_driver] Start of simulation for uvm_test_top.env.apb_uvcc.agent.driver
# UVM_INFO ../apb_uvc/apb_coverage_monitor.sv(71) @ 0: uvm_test_top.env.apb_uvcc.agent.monitor [apb_coverage_monitor] Start of simulation for uvm_test_top.env.apb_uvcc.agent.monitor
# UVM_INFO ../apb_uvc/apb_sequencer.sv(11) @ 0: uvm_test_top.env.apb_uvcc.agent.sequencer [apb_sequencer] start of simulation for uvm_test_top.env.apb_uvcc.agent.sequencer
# UVM_INFO ../apb_uvc/apb_agent.sv(35) @ 0: uvm_test_top.env.apb_uvcc.agent [apb_agent] Start of simulation for uvm_test_top.env.apb_uvcc.agent
# UVM_INFO ../apb_uvc/apb_uvc.sv(19) @ 0: uvm_test_top.env.apb_uvcc [apb_uvc] Start of simulation for uvm_test_top.env.apb_uvcc
# UVM_INFO ../uart_uvc/uart_agent.sv(48) @ 0: uvm_test_top.env.uart_uvcc.agent [uart_agent] Start of simulation for uvm_test_top.env.uart_uvcc.agent
# UVM_INFO ../uart_uvc/uart_agent.sv(49) @ 0: uvm_test_top.env.uart_uvcc.agent [uart_agent] Agent started in UVM_PASSIVE mode.
# UVM_INFO ../tb/apb_uart_testlib.sv(37) @ 0: uvm_test_top [test_send_N_frame] start of simulation for uvm_test_top
# UVM_INFO ../tb/apb_uart_scoreboard.sv(121) @ 0: uvm_test_top.env.scoreboard [SB_RESET] Reset detected! Clearing all queues...
# UVM_INFO ../tb/uart_virseqs.sv(21) @ 0: uvm_test_top.env.vir_seqr@@vseq_send_N_TX [vseq_send_N_TX] raise objection
# UVM_INFO ../tb/uart_virseqs.sv(188) @ 0: uvm_test_top.env.vir_seqr@@vseq_send_N_TX [VSEQ_N] === STARTING TEST: SEND 51 FRAMES ===
# UVM_INFO ../tb/uart_virseqs.sv(191) @ 0: uvm_test_top.env.vir_seqr@@vseq_send_N_TX [VSEQ_N] 
#####========================Executing FRAME 1/51...========================#####
# UVM_INFO ../tb/uart_virseqs.sv(111) @ 0: uvm_test_top.env.vir_seqr@@vseq_send_N_TX.single_tx_vseq [VSEQ] === STARTING  TEST: DUT -> uart UVC ===
# UVM_INFO ../tb/uart_virseqs.sv(67) @ 0: uvm_test_top.env.vir_seqr@@vseq_send_N_TX.single_tx_vseq.config_vseq [VSEQ] Configuring System using shared object from Test...
# UVM_INFO ../apb_uvc/apb_seqs.sv(62) @ 0: uvm_test_top.env.apb_uvcc.agent.sequencer@@apb_seq [APB_WR_SEQ] Writing Config to DUT: 0x00000001 
#  (DATA_6BIT, PARITY_DIS, PARITY_ODD, STOP_1BIT)
# UVM_INFO ../uart_uvc/uart_coverage_monitor.sv(95) @ 100000: uvm_test_top.env.uart_uvcc.agent.monitor [uart_coverage_monitor] Coverage Monitor started.
# UVM_INFO ../apb_uvc/apb_driver.sv(35) @ 100000: uvm_test_top.env.apb_uvcc.agent.driver [apb_driver] Reset released, APB Driver active
# UVM_INFO ../apb_uvc/apb_driver.sv(52) @ 150000: uvm_test_top.env.apb_uvcc.agent.driver [apb_driver] APB Transaction:
# --------------------------------------------------------------------------------------------------------
# Name                           Type              Size  Value                                            
# --------------------------------------------------------------------------------------------------------
# req                            apb_transaction   -     @890                                             
#   paddr                        integral          12    'h8                                              
#   pwdata                       integral          32    'h1                                              
#   pwrite                       integral          1     'h1                                              
#   pstrb                        integral          4     'h1                                              
#   prdata                       integral          32    'h0xxxxxxxx                                      
#   pslverr                      integral          1     'h0X                                             
#   addr_type                    addr_test_type_e  32    ADDR_VALID                                       
#   write_true_flase             write_quality_e   32    WRITE_ADDR_FALSE                                 
#   begin_time                   time              64    110000                                           
#   depth                        int               32    'd2                                              
#   parent sequence (name)       string            7     apb_seq                                          
#   parent sequence (full name)  string            49    uvm_test_top.env.apb_uvcc.agent.sequencer.apb_seq
#   sequencer                    string            41    uvm_test_top.env.apb_uvcc.agent.sequencer        
# --------------------------------------------------------------------------------------------------------
# 
# UVM_INFO ../apb_uvc/apb_coverage_monitor.sv(94) @ 150000: uvm_test_top.env.apb_uvcc.agent.monitor [MON] Updating UART Configuration
# UVM_INFO ../tb/apb_uart_scoreboard.sv(112) @ 150000: uvm_test_top.env.scoreboard [SB_CFG_SYNC] Config updated via APB: DATA_6BIT, STOP_1BIT
# UVM_INFO ../tb/apb_uart_scoreboard.sv(335) @ 160000: uvm_test_top.env.scoreboard [SB_CFG_HDL] 
# ============CFG Backdoor check PASSED============
# UVM_INFO ../tb/uart_virseqs.sv(82) @ 350000: uvm_test_top.env.vir_seqr@@vseq_send_N_TX.single_tx_vseq.config_vseq [VSEQ] UART Driver remains IDLE (TX Only Mode)
# UVM_INFO ../tb/uart_virseqs.sv(40) @ 350000: uvm_test_top.env.vir_seqr@@vseq_send_N_TX.single_tx_vseq [VSEQ] 
#####===NUM DATA BIT = DATA_6BIT, NUM STOP BIT = STOP_1BIT, PARITY EN = PARITY_DIS, PARITY TYPE = PARITY_ODD===#####
# UVM_INFO ../tb/uart_virseqs.sv(139) @ 350000: uvm_test_top.env.vir_seqr@@vseq_send_N_TX.single_tx_vseq [VSEQ] 
#####===Calculation: Data=8 bits, Baud=115200, Tbit=8680.56ns===#####
# UVM_INFO ../apb_uvc/apb_seqs.sv(88) @ 350000: uvm_test_top.env.apb_uvcc.agent.sequencer@@vseq_send_N_TX.single_tx_vseq.apb_write_send_seq [send_tx_data_seq] Send TX with data: 0x40
# UVM_INFO ../apb_uvc/apb_driver.sv(52) @ 410000: uvm_test_top.env.apb_uvcc.agent.driver [apb_driver] APB Transaction:
# ---------------------------------------------------------------------------------------------------------------------------------
# Name                           Type              Size  Value                                                                     
# ---------------------------------------------------------------------------------------------------------------------------------
# req                            apb_transaction   -     @960                                                                      
#   paddr                        integral          12    'h0                                                                       
#   pwdata                       integral          32    'h40                                                                      
#   pwrite                       integral          1     'h1                                                                       
#   pstrb                        integral          4     'h1                                                                       
#   prdata                       integral          32    'h0xxxxxxxx                                                               
#   pslverr                      integral          1     'h0X                                                                      
#   addr_type                    addr_test_type_e  32    ADDR_VALID                                                                
#   write_true_flase             write_quality_e   32    WRITE_ADDR_FALSE                                                          
#   begin_time                   time              64    370000                                                                    
#   depth                        int               32    'd4                                                                       
#   parent sequence (name)       string            18    apb_write_send_seq                                                        
#   parent sequence (full name)  string            74    uvm_test_top.env.vir_seqr.vseq_send_N_TX.single_tx_vseq.apb_write_send_seq
#   sequencer                    string            41    uvm_test_top.env.apb_uvcc.agent.sequencer                                 
# ---------------------------------------------------------------------------------------------------------------------------------
# 
# UVM_INFO ../apb_uvc/apb_coverage_monitor.sv(93) @ 410000: uvm_test_top.env.apb_uvcc.agent.monitor [MON] Writing TX Data: 0x40
# UVM_INFO ../tb/apb_uart_scoreboard.sv(89) @ 410000: uvm_test_top.env.scoreboard [SB_APB] APB->TXDATA queued: 0x40
# UVM_INFO ../apb_uvc/apb_driver.sv(52) @ 470000: uvm_test_top.env.apb_uvcc.agent.driver [apb_driver] APB Transaction:
# ---------------------------------------------------------------------------------------------------------------------------------
# Name                           Type              Size  Value                                                                     
# ---------------------------------------------------------------------------------------------------------------------------------
# req                            apb_transaction   -     @968                                                                      
#   paddr                        integral          12    'hc                                                                       
#   pwdata                       integral          32    'h1                                                                       
#   pwrite                       integral          1     'h1                                                                       
#   pstrb                        integral          4     'h1                                                                       
#   prdata                       integral          32    'h0xxxxxxxx                                                               
#   pslverr                      integral          1     'h0X                                                                      
#   addr_type                    addr_test_type_e  32    ADDR_VALID                                                                
#   write_true_flase             write_quality_e   32    WRITE_ADDR_TRUE                                                           
#   begin_time                   time              64    430000                                                                    
#   depth                        int               32    'd4                                                                       
#   parent sequence (name)       string            18    apb_write_send_seq                                                        
#   parent sequence (full name)  string            74    uvm_test_top.env.vir_seqr.vseq_send_N_TX.single_tx_vseq.apb_write_send_seq
#   sequencer                    string            41    uvm_test_top.env.apb_uvcc.agent.sequencer                                 
# ---------------------------------------------------------------------------------------------------------------------------------
# 
# UVM_INFO ../apb_uvc/apb_coverage_monitor.sv(95) @ 470000: uvm_test_top.env.apb_uvcc.agent.monitor [MON] Start TX Triggered
# UVM_INFO ../tb/apb_uart_scoreboard.sv(141) @ 78250000: uvm_test_top.env.scoreboard [SB_UART] UART TX queued: 0x00
# UVM_INFO ../uart_uvc/uart_coverage_monitor.sv(189) @ 78250000: uvm_test_top.env.uart_uvcc.agent.monitor [MON_TX] DATA is monitored from TX: 0x00
# UVM_INFO ../tb/apb_uart_scoreboard.sv(214) @ 78250000: uvm_test_top.env.scoreboard [SB_TX] 
# Match  APB->TXDATA == UART_TX == 0x00 (bits=6)
# UVM_INFO ../apb_uvc/apb_seqs.sv(134) @ 87280000: uvm_test_top.env.apb_uvcc.agent.sequencer@@vseq_send_N_TX.single_tx_vseq.stt_seq [read_status_reg_seq] Reading UART Status Register (0x10)
# UVM_INFO ../apb_uvc/apb_driver.sv(52) @ 87330000: uvm_test_top.env.apb_uvcc.agent.driver [apb_driver] APB Transaction:
# ----------------------------------------------------------------------------------------------------------------------
# Name                           Type              Size  Value                                                          
# ----------------------------------------------------------------------------------------------------------------------
# req                            apb_transaction   -     @990                                                           
#   paddr                        integral          12    'h10                                                           
#   pwdata                       integral          32    'h68e01612                                                     
#   pwrite                       integral          1     'h0                                                            
#   pstrb                        integral          4     'h0                                                            
#   prdata                       integral          32    'h3                                                            
#   pslverr                      integral          1     'h0X                                                           
#   addr_type                    addr_test_type_e  32    ADDR_RO                                                        
#   write_true_flase             write_quality_e   32    WRITE_ADDR_FALSE                                               
#   begin_time                   time              64    87290000                                                       
#   depth                        int               32    'd4                                                            
#   parent sequence (name)       string            7     stt_seq                                                        
#   parent sequence (full name)  string            63    uvm_test_top.env.vir_seqr.vseq_send_N_TX.single_tx_vseq.stt_seq
#   sequencer                    string            41    uvm_test_top.env.apb_uvcc.agent.sequencer                      
# ----------------------------------------------------------------------------------------------------------------------
# 
# UVM_INFO ../tb/uart_virseqs.sv(163) @ 87330000: uvm_test_top.env.vir_seqr@@vseq_send_N_TX.single_tx_vseq [VSEQ] TX_DONE Detected!
# UVM_INFO ../tb/uart_virseqs.sv(170) @ 87330000: uvm_test_top.env.vir_seqr@@vseq_send_N_TX.single_tx_vseq [VSEQ] ===  TEST COMPLETED ===
# UVM_INFO ../tb/uart_virseqs.sv(191) @ 87330000: uvm_test_top.env.vir_seqr@@vseq_send_N_TX [VSEQ_N] 
#####========================Executing FRAME 2/51...========================#####
# UVM_INFO ../tb/uart_virseqs.sv(111) @ 87330000: uvm_test_top.env.vir_seqr@@vseq_send_N_TX.single_tx_vseq [VSEQ] === STARTING  TEST: DUT -> uart UVC ===
# UVM_INFO ../tb/uart_virseqs.sv(67) @ 87330000: uvm_test_top.env.vir_seqr@@vseq_send_N_TX.single_tx_vseq.config_vseq [VSEQ] Configuring System using shared object from Test...
# UVM_INFO ../apb_uvc/apb_seqs.sv(62) @ 87330000: uvm_test_top.env.apb_uvcc.agent.sequencer@@apb_seq [APB_WR_SEQ] Writing Config to DUT: 0x00000001 
#  (DATA_6BIT, PARITY_DIS, PARITY_ODD, STOP_1BIT)
# UVM_INFO ../apb_uvc/apb_driver.sv(52) @ 87390000: uvm_test_top.env.apb_uvcc.agent.driver [apb_driver] APB Transaction:
# --------------------------------------------------------------------------------------------------------
# Name                           Type              Size  Value                                            
# --------------------------------------------------------------------------------------------------------
# req                            apb_transaction   -     @1016                                            
#   paddr                        integral          12    'h8                                              
#   pwdata                       integral          32    'h1                                              
#   pwrite                       integral          1     'h1                                              
#   pstrb                        integral          4     'h1                                              
#   prdata                       integral          32    'h0xxxxxxxx                                      
#   pslverr                      integral          1     'h0X                                             
#   addr_type                    addr_test_type_e  32    ADDR_VALID                                       
#   write_true_flase             write_quality_e   32    WRITE_ADDR_FALSE                                 
#   begin_time                   time              64    87350000                                         
#   depth                        int               32    'd2                                              
#   parent sequence (name)       string            7     apb_seq                                          
#   parent sequence (full name)  string            49    uvm_test_top.env.apb_uvcc.agent.sequencer.apb_seq
#   sequencer                    string            41    uvm_test_top.env.apb_uvcc.agent.sequencer        
# --------------------------------------------------------------------------------------------------------
# 
# UVM_INFO ../apb_uvc/apb_coverage_monitor.sv(94) @ 87390000: uvm_test_top.env.apb_uvcc.agent.monitor [MON] Updating UART Configuration
# UVM_INFO ../tb/apb_uart_scoreboard.sv(112) @ 87390000: uvm_test_top.env.scoreboard [SB_CFG_SYNC] Config updated via APB: DATA_6BIT, STOP_1BIT
# UVM_INFO ../tb/apb_uart_scoreboard.sv(335) @ 87400000: uvm_test_top.env.scoreboard [SB_CFG_HDL] 
# ============CFG Backdoor check PASSED============
# UVM_INFO ../tb/uart_virseqs.sv(82) @ 87590000: uvm_test_top.env.vir_seqr@@vseq_send_N_TX.single_tx_vseq.config_vseq [VSEQ] UART Driver remains IDLE (TX Only Mode)
# UVM_INFO ../tb/uart_virseqs.sv(40) @ 87590000: uvm_test_top.env.vir_seqr@@vseq_send_N_TX.single_tx_vseq [VSEQ] 
#####===NUM DATA BIT = DATA_6BIT, NUM STOP BIT = STOP_1BIT, PARITY EN = PARITY_DIS, PARITY TYPE = PARITY_ODD===#####
# UVM_INFO ../tb/uart_virseqs.sv(139) @ 87590000: uvm_test_top.env.vir_seqr@@vseq_send_N_TX.single_tx_vseq [VSEQ] 
#####===Calculation: Data=8 bits, Baud=115200, Tbit=8680.56ns===#####
# UVM_INFO ../apb_uvc/apb_seqs.sv(88) @ 87590000: uvm_test_top.env.apb_uvcc.agent.sequencer@@vseq_send_N_TX.single_tx_vseq.apb_write_send_seq [send_tx_data_seq] Send TX with data: 0x1
# UVM_INFO ../apb_uvc/apb_driver.sv(52) @ 87650000: uvm_test_top.env.apb_uvcc.agent.driver [apb_driver] APB Transaction:
# ---------------------------------------------------------------------------------------------------------------------------------
# Name                           Type              Size  Value                                                                     
# ---------------------------------------------------------------------------------------------------------------------------------
# req                            apb_transaction   -     @1028                                                                     
#   paddr                        integral          12    'h0                                                                       
#   pwdata                       integral          32    'h1                                                                       
#   pwrite                       integral          1     'h1                                                                       
#   pstrb                        integral          4     'h1                                                                       
#   prdata                       integral          32    'h0xxxxxxxx                                                               
#   pslverr                      integral          1     'h0X                                                                      
#   addr_type                    addr_test_type_e  32    ADDR_VALID                                                                
#   write_true_flase             write_quality_e   32    WRITE_ADDR_TRUE                                                           
#   begin_time                   time              64    87610000                                                                  
#   depth                        int               32    'd4                                                                       
#   parent sequence (name)       string            18    apb_write_send_seq                                                        
#   parent sequence (full name)  string            74    uvm_test_top.env.vir_seqr.vseq_send_N_TX.single_tx_vseq.apb_write_send_seq
#   sequencer                    string            41    uvm_test_top.env.apb_uvcc.agent.sequencer                                 
# ---------------------------------------------------------------------------------------------------------------------------------
# 
# UVM_INFO ../apb_uvc/apb_coverage_monitor.sv(93) @ 87650000: uvm_test_top.env.apb_uvcc.agent.monitor [MON] Writing TX Data: 0x01
# UVM_INFO ../tb/apb_uart_scoreboard.sv(89) @ 87650000: uvm_test_top.env.scoreboard [SB_APB] APB->TXDATA queued: 0x01
# UVM_INFO ../apb_uvc/apb_driver.sv(52) @ 87710000: uvm_test_top.env.apb_uvcc.agent.driver [apb_driver] APB Transaction:
# ---------------------------------------------------------------------------------------------------------------------------------
# Name                           Type              Size  Value                                                                     
# ---------------------------------------------------------------------------------------------------------------------------------
# req                            apb_transaction   -     @1036                                                                     
#   paddr                        integral          12    'hc                                                                       
#   pwdata                       integral          32    'h1                                                                       
#   pwrite                       integral          1     'h1                                                                       
#   pstrb                        integral          4     'h1                                                                       
#   prdata                       integral          32    'h0xxxxxxxx                                                               
#   pslverr                      integral          1     'h0X                                                                      
#   addr_type                    addr_test_type_e  32    ADDR_VALID                                                                
#   write_true_flase             write_quality_e   32    WRITE_ADDR_FALSE                                                          
#   begin_time                   time              64    87670000                                                                  
#   depth                        int               32    'd4                                                                       
#   parent sequence (name)       string            18    apb_write_send_seq                                                        
#   parent sequence (full name)  string            74    uvm_test_top.env.vir_seqr.vseq_send_N_TX.single_tx_vseq.apb_write_send_seq
#   sequencer                    string            41    uvm_test_top.env.apb_uvcc.agent.sequencer                                 
# ---------------------------------------------------------------------------------------------------------------------------------
# 
# UVM_INFO ../apb_uvc/apb_coverage_monitor.sv(95) @ 87710000: uvm_test_top.env.apb_uvcc.agent.monitor [MON] Start TX Triggered
# UVM_INFO ../tb/apb_uart_scoreboard.sv(141) @ 165250000: uvm_test_top.env.scoreboard [SB_UART] UART TX queued: 0x01
# UVM_INFO ../uart_uvc/uart_coverage_monitor.sv(189) @ 165250000: uvm_test_top.env.uart_uvcc.agent.monitor [MON_TX] DATA is monitored from TX: 0x01
# UVM_INFO ../tb/apb_uart_scoreboard.sv(214) @ 165250000: uvm_test_top.env.scoreboard [SB_TX] 
# Match  APB->TXDATA == UART_TX == 0x01 (bits=6)
# UVM_INFO ../apb_uvc/apb_seqs.sv(134) @ 174520000: uvm_test_top.env.apb_uvcc.agent.sequencer@@vseq_send_N_TX.single_tx_vseq.stt_seq [read_status_reg_seq] Reading UART Status Register (0x10)
# UVM_INFO ../apb_uvc/apb_driver.sv(52) @ 174570000: uvm_test_top.env.apb_uvcc.agent.driver [apb_driver] APB Transaction:
# ----------------------------------------------------------------------------------------------------------------------
# Name                           Type              Size  Value                                                          
# ----------------------------------------------------------------------------------------------------------------------
# req                            apb_transaction   -     @1056                                                          
#   paddr                        integral          12    'h10                                                           
#   pwdata                       integral          32    'hda7cb989                                                     
#   pwrite                       integral          1     'h0                                                            
#   pstrb                        integral          4     'h1                                                            
#   prdata                       integral          32    'h3                                                            
#   pslverr                      integral          1     'h0X                                                           
#   addr_type                    addr_test_type_e  32    ADDR_RO                                                        
#   write_true_flase             write_quality_e   32    WRITE_ADDR_FALSE                                               
#   begin_time                   time              64    174530000                                                      
#   depth                        int               32    'd4                                                            
#   parent sequence (name)       string            7     stt_seq                                                        
#   parent sequence (full name)  string            63    uvm_test_top.env.vir_seqr.vseq_send_N_TX.single_tx_vseq.stt_seq
#   sequencer                    string            41    uvm_test_top.env.apb_uvcc.agent.sequencer                      
# ----------------------------------------------------------------------------------------------------------------------
# 
# UVM_INFO ../tb/uart_virseqs.sv(163) @ 174570000: uvm_test_top.env.vir_seqr@@vseq_send_N_TX.single_tx_vseq [VSEQ] TX_DONE Detected!
# UVM_INFO ../tb/uart_virseqs.sv(170) @ 174570000: uvm_test_top.env.vir_seqr@@vseq_send_N_TX.single_tx_vseq [VSEQ] ===  TEST COMPLETED ===
# UVM_INFO ../tb/uart_virseqs.sv(191) @ 174570000: uvm_test_top.env.vir_seqr@@vseq_send_N_TX [VSEQ_N] 
#####========================Executing FRAME 3/51...========================#####
# UVM_INFO ../tb/uart_virseqs.sv(111) @ 174570000: uvm_test_top.env.vir_seqr@@vseq_send_N_TX.single_tx_vseq [VSEQ] === STARTING  TEST: DUT -> uart UVC ===
# UVM_INFO ../tb/uart_virseqs.sv(67) @ 174570000: uvm_test_top.env.vir_seqr@@vseq_send_N_TX.single_tx_vseq.config_vseq [VSEQ] Configuring System using shared object from Test...
# UVM_INFO ../apb_uvc/apb_seqs.sv(62) @ 174570000: uvm_test_top.env.apb_uvcc.agent.sequencer@@apb_seq [APB_WR_SEQ] Writing Config to DUT: 0x00000001 
#  (DATA_6BIT, PARITY_DIS, PARITY_ODD, STOP_1BIT)
# UVM_INFO ../apb_uvc/apb_driver.sv(52) @ 174630000: uvm_test_top.env.apb_uvcc.agent.driver [apb_driver] APB Transaction:
# --------------------------------------------------------------------------------------------------------
# Name                           Type              Size  Value                                            
# --------------------------------------------------------------------------------------------------------
# req                            apb_transaction   -     @1082                                            
#   paddr                        integral          12    'h8                                              
#   pwdata                       integral          32    'h1                                              
#   pwrite                       integral          1     'h1                                              
#   pstrb                        integral          4     'h1                                              
#   prdata                       integral          32    'h0xxxxxxxx                                      
#   pslverr                      integral          1     'h0X                                             
#   addr_type                    addr_test_type_e  32    ADDR_VALID                                       
#   write_true_flase             write_quality_e   32    WRITE_ADDR_TRUE                                  
#   begin_time                   time              64    174590000                                        
#   depth                        int               32    'd2                                              
#   parent sequence (name)       string            7     apb_seq                                          
#   parent sequence (full name)  string            49    uvm_test_top.env.apb_uvcc.agent.sequencer.apb_seq
#   sequencer                    string            41    uvm_test_top.env.apb_uvcc.agent.sequencer        
# --------------------------------------------------------------------------------------------------------
# 
# UVM_INFO ../apb_uvc/apb_coverage_monitor.sv(94) @ 174630000: uvm_test_top.env.apb_uvcc.agent.monitor [MON] Updating UART Configuration
# UVM_INFO ../tb/apb_uart_scoreboard.sv(112) @ 174630000: uvm_test_top.env.scoreboard [SB_CFG_SYNC] Config updated via APB: DATA_6BIT, STOP_1BIT
# UVM_INFO ../tb/apb_uart_scoreboard.sv(335) @ 174640000: uvm_test_top.env.scoreboard [SB_CFG_HDL] 
# ============CFG Backdoor check PASSED============
# UVM_INFO ../tb/uart_virseqs.sv(82) @ 174830000: uvm_test_top.env.vir_seqr@@vseq_send_N_TX.single_tx_vseq.config_vseq [VSEQ] UART Driver remains IDLE (TX Only Mode)
# UVM_INFO ../tb/uart_virseqs.sv(40) @ 174830000: uvm_test_top.env.vir_seqr@@vseq_send_N_TX.single_tx_vseq [VSEQ] 
#####===NUM DATA BIT = DATA_6BIT, NUM STOP BIT = STOP_1BIT, PARITY EN = PARITY_DIS, PARITY TYPE = PARITY_ODD===#####
# UVM_INFO ../tb/uart_virseqs.sv(139) @ 174830000: uvm_test_top.env.vir_seqr@@vseq_send_N_TX.single_tx_vseq [VSEQ] 
#####===Calculation: Data=8 bits, Baud=115200, Tbit=8680.56ns===#####
# UVM_INFO ../apb_uvc/apb_seqs.sv(88) @ 174830000: uvm_test_top.env.apb_uvcc.agent.sequencer@@vseq_send_N_TX.single_tx_vseq.apb_write_send_seq [send_tx_data_seq] Send TX with data: 0x5c
# UVM_INFO ../apb_uvc/apb_driver.sv(52) @ 174890000: uvm_test_top.env.apb_uvcc.agent.driver [apb_driver] APB Transaction:
# ---------------------------------------------------------------------------------------------------------------------------------
# Name                           Type              Size  Value                                                                     
# ---------------------------------------------------------------------------------------------------------------------------------
# req                            apb_transaction   -     @1094                                                                     
#   paddr                        integral          12    'h0                                                                       
#   pwdata                       integral          32    'h5c                                                                      
#   pwrite                       integral          1     'h1                                                                       
#   pstrb                        integral          4     'h1                                                                       
#   prdata                       integral          32    'h0xxxxxxxx                                                               
#   pslverr                      integral          1     'h0X                                                                      
#   addr_type                    addr_test_type_e  32    ADDR_VALID                                                                
#   write_true_flase             write_quality_e   32    WRITE_ADDR_TRUE                                                           
#   begin_time                   time              64    174850000                                                                 
#   depth                        int               32    'd4                                                                       
#   parent sequence (name)       string            18    apb_write_send_seq                                                        
#   parent sequence (full name)  string            74    uvm_test_top.env.vir_seqr.vseq_send_N_TX.single_tx_vseq.apb_write_send_seq
#   sequencer                    string            41    uvm_test_top.env.apb_uvcc.agent.sequencer                                 
# ---------------------------------------------------------------------------------------------------------------------------------
# 
# UVM_INFO ../apb_uvc/apb_coverage_monitor.sv(93) @ 174890000: uvm_test_top.env.apb_uvcc.agent.monitor [MON] Writing TX Data: 0x5c
# UVM_INFO ../tb/apb_uart_scoreboard.sv(89) @ 174890000: uvm_test_top.env.scoreboard [SB_APB] APB->TXDATA queued: 0x5c
# UVM_INFO ../apb_uvc/apb_driver.sv(52) @ 174950000: uvm_test_top.env.apb_uvcc.agent.driver [apb_driver] APB Transaction:
# ---------------------------------------------------------------------------------------------------------------------------------
# Name                           Type              Size  Value                                                                     
# ---------------------------------------------------------------------------------------------------------------------------------
# req                            apb_transaction   -     @1102                                                                     
#   paddr                        integral          12    'hc                                                                       
#   pwdata                       integral          32    'h1                                                                       
#   pwrite                       integral          1     'h1                                                                       
#   pstrb                        integral          4     'h1                                                                       
#   prdata                       integral          32    'h0xxxxxxxx                                                               
#   pslverr                      integral          1     'h0X                                                                      
#   addr_type                    addr_test_type_e  32    ADDR_VALID                                                                
#   write_true_flase             write_quality_e   32    WRITE_ADDR_TRUE                                                           
#   begin_time                   time              64    174910000                                                                 
#   depth                        int               32    'd4                                                                       
#   parent sequence (name)       string            18    apb_write_send_seq                                                        
#   parent sequence (full name)  string            74    uvm_test_top.env.vir_seqr.vseq_send_N_TX.single_tx_vseq.apb_write_send_seq
#   sequencer                    string            41    uvm_test_top.env.apb_uvcc.agent.sequencer                                 
# ---------------------------------------------------------------------------------------------------------------------------------
# 
# UVM_INFO ../apb_uvc/apb_coverage_monitor.sv(95) @ 174950000: uvm_test_top.env.apb_uvcc.agent.monitor [MON] Start TX Triggered
# UVM_INFO ../tb/apb_uart_scoreboard.sv(141) @ 252250000: uvm_test_top.env.scoreboard [SB_UART] UART TX queued: 0x1c
# UVM_INFO ../uart_uvc/uart_coverage_monitor.sv(189) @ 252250000: uvm_test_top.env.uart_uvcc.agent.monitor [MON_TX] DATA is monitored from TX: 0x1c
# UVM_INFO ../tb/apb_uart_scoreboard.sv(214) @ 252250000: uvm_test_top.env.scoreboard [SB_TX] 
# Match  APB->TXDATA == UART_TX == 0x1c (bits=6)
# UVM_INFO ../apb_uvc/apb_seqs.sv(134) @ 261760000: uvm_test_top.env.apb_uvcc.agent.sequencer@@vseq_send_N_TX.single_tx_vseq.stt_seq [read_status_reg_seq] Reading UART Status Register (0x10)
# UVM_INFO ../apb_uvc/apb_driver.sv(52) @ 261810000: uvm_test_top.env.apb_uvcc.agent.driver [apb_driver] APB Transaction:
# ----------------------------------------------------------------------------------------------------------------------
# Name                           Type              Size  Value                                                          
# ----------------------------------------------------------------------------------------------------------------------
# req                            apb_transaction   -     @1122                                                          
#   paddr                        integral          12    'h10                                                           
#   pwdata                       integral          32    'h597b6ef7                                                     
#   pwrite                       integral          1     'h0                                                            
#   pstrb                        integral          4     'h1                                                            
#   prdata                       integral          32    'h3                                                            
#   pslverr                      integral          1     'h0X                                                           
#   addr_type                    addr_test_type_e  32    ADDR_RO                                                        
#   write_true_flase             write_quality_e   32    WRITE_ADDR_TRUE                                                
#   begin_time                   time              64    261770000                                                      
#   depth                        int               32    'd4                                                            
#   parent sequence (name)       string            7     stt_seq                                                        
#   parent sequence (full name)  string            63    uvm_test_top.env.vir_seqr.vseq_send_N_TX.single_tx_vseq.stt_seq
#   sequencer                    string            41    uvm_test_top.env.apb_uvcc.agent.sequencer                      
# ----------------------------------------------------------------------------------------------------------------------
# 
# UVM_INFO ../tb/uart_virseqs.sv(163) @ 261810000: uvm_test_top.env.vir_seqr@@vseq_send_N_TX.single_tx_vseq [VSEQ] TX_DONE Detected!
# UVM_INFO ../tb/uart_virseqs.sv(170) @ 261810000: uvm_test_top.env.vir_seqr@@vseq_send_N_TX.single_tx_vseq [VSEQ] ===  TEST COMPLETED ===
# UVM_INFO ../tb/uart_virseqs.sv(191) @ 261810000: uvm_test_top.env.vir_seqr@@vseq_send_N_TX [VSEQ_N] 
#####========================Executing FRAME 4/51...========================#####
# UVM_INFO ../tb/uart_virseqs.sv(111) @ 261810000: uvm_test_top.env.vir_seqr@@vseq_send_N_TX.single_tx_vseq [VSEQ] === STARTING  TEST: DUT -> uart UVC ===
# UVM_INFO ../tb/uart_virseqs.sv(67) @ 261810000: uvm_test_top.env.vir_seqr@@vseq_send_N_TX.single_tx_vseq.config_vseq [VSEQ] Configuring System using shared object from Test...
# UVM_INFO ../apb_uvc/apb_seqs.sv(62) @ 261810000: uvm_test_top.env.apb_uvcc.agent.sequencer@@apb_seq [APB_WR_SEQ] Writing Config to DUT: 0x00000001 
#  (DATA_6BIT, PARITY_DIS, PARITY_ODD, STOP_1BIT)
# UVM_INFO ../apb_uvc/apb_driver.sv(52) @ 261870000: uvm_test_top.env.apb_uvcc.agent.driver [apb_driver] APB Transaction:
# --------------------------------------------------------------------------------------------------------
# Name                           Type              Size  Value                                            
# --------------------------------------------------------------------------------------------------------
# req                            apb_transaction   -     @1148                                            
#   paddr                        integral          12    'h8                                              
#   pwdata                       integral          32    'h1                                              
#   pwrite                       integral          1     'h1                                              
#   pstrb                        integral          4     'h1                                              
#   prdata                       integral          32    'h0xxxxxxxx                                      
#   pslverr                      integral          1     'h0X                                             
#   addr_type                    addr_test_type_e  32    ADDR_VALID                                       
#   write_true_flase             write_quality_e   32    WRITE_ADDR_TRUE                                  
#   begin_time                   time              64    261830000                                        
#   depth                        int               32    'd2                                              
#   parent sequence (name)       string            7     apb_seq                                          
#   parent sequence (full name)  string            49    uvm_test_top.env.apb_uvcc.agent.sequencer.apb_seq
#   sequencer                    string            41    uvm_test_top.env.apb_uvcc.agent.sequencer        
# --------------------------------------------------------------------------------------------------------
# 
# UVM_INFO ../apb_uvc/apb_coverage_monitor.sv(94) @ 261870000: uvm_test_top.env.apb_uvcc.agent.monitor [MON] Updating UART Configuration
# UVM_INFO ../tb/apb_uart_scoreboard.sv(112) @ 261870000: uvm_test_top.env.scoreboard [SB_CFG_SYNC] Config updated via APB: DATA_6BIT, STOP_1BIT
# UVM_INFO ../tb/apb_uart_scoreboard.sv(335) @ 261880000: uvm_test_top.env.scoreboard [SB_CFG_HDL] 
# ============CFG Backdoor check PASSED============
# UVM_INFO ../tb/uart_virseqs.sv(82) @ 262070000: uvm_test_top.env.vir_seqr@@vseq_send_N_TX.single_tx_vseq.config_vseq [VSEQ] UART Driver remains IDLE (TX Only Mode)
# UVM_INFO ../tb/uart_virseqs.sv(40) @ 262070000: uvm_test_top.env.vir_seqr@@vseq_send_N_TX.single_tx_vseq [VSEQ] 
#####===NUM DATA BIT = DATA_6BIT, NUM STOP BIT = STOP_1BIT, PARITY EN = PARITY_DIS, PARITY TYPE = PARITY_ODD===#####
# UVM_INFO ../tb/uart_virseqs.sv(139) @ 262070000: uvm_test_top.env.vir_seqr@@vseq_send_N_TX.single_tx_vseq [VSEQ] 
#####===Calculation: Data=8 bits, Baud=115200, Tbit=8680.56ns===#####
# UVM_INFO ../apb_uvc/apb_seqs.sv(88) @ 262070000: uvm_test_top.env.apb_uvcc.agent.sequencer@@vseq_send_N_TX.single_tx_vseq.apb_write_send_seq [send_tx_data_seq] Send TX with data: 0x4e
# UVM_INFO ../apb_uvc/apb_driver.sv(52) @ 262130000: uvm_test_top.env.apb_uvcc.agent.driver [apb_driver] APB Transaction:
# ---------------------------------------------------------------------------------------------------------------------------------
# Name                           Type              Size  Value                                                                     
# ---------------------------------------------------------------------------------------------------------------------------------
# req                            apb_transaction   -     @1160                                                                     
#   paddr                        integral          12    'h0                                                                       
#   pwdata                       integral          32    'h4e                                                                      
#   pwrite                       integral          1     'h1                                                                       
#   pstrb                        integral          4     'h1                                                                       
#   prdata                       integral          32    'h0xxxxxxxx                                                               
#   pslverr                      integral          1     'h0X                                                                      
#   addr_type                    addr_test_type_e  32    ADDR_VALID                                                                
#   write_true_flase             write_quality_e   32    WRITE_ADDR_TRUE                                                           
#   begin_time                   time              64    262090000                                                                 
#   depth                        int               32    'd4                                                                       
#   parent sequence (name)       string            18    apb_write_send_seq                                                        
#   parent sequence (full name)  string            74    uvm_test_top.env.vir_seqr.vseq_send_N_TX.single_tx_vseq.apb_write_send_seq
#   sequencer                    string            41    uvm_test_top.env.apb_uvcc.agent.sequencer                                 
# ---------------------------------------------------------------------------------------------------------------------------------
# 
# UVM_INFO ../apb_uvc/apb_coverage_monitor.sv(93) @ 262130000: uvm_test_top.env.apb_uvcc.agent.monitor [MON] Writing TX Data: 0x4e
# UVM_INFO ../tb/apb_uart_scoreboard.sv(89) @ 262130000: uvm_test_top.env.scoreboard [SB_APB] APB->TXDATA queued: 0x4e
# UVM_INFO ../apb_uvc/apb_driver.sv(52) @ 262190000: uvm_test_top.env.apb_uvcc.agent.driver [apb_driver] APB Transaction:
# ---------------------------------------------------------------------------------------------------------------------------------
# Name                           Type              Size  Value                                                                     
# ---------------------------------------------------------------------------------------------------------------------------------
# req                            apb_transaction   -     @1168                                                                     
#   paddr                        integral          12    'hc                                                                       
#   pwdata                       integral          32    'h1                                                                       
#   pwrite                       integral          1     'h1                                                                       
#   pstrb                        integral          4     'h1                                                                       
#   prdata                       integral          32    'h0xxxxxxxx                                                               
#   pslverr                      integral          1     'h0X                                                                      
#   addr_type                    addr_test_type_e  32    ADDR_VALID                                                                
#   write_true_flase             write_quality_e   32    WRITE_ADDR_TRUE                                                           
#   begin_time                   time              64    262150000                                                                 
#   depth                        int               32    'd4                                                                       
#   parent sequence (name)       string            18    apb_write_send_seq                                                        
#   parent sequence (full name)  string            74    uvm_test_top.env.vir_seqr.vseq_send_N_TX.single_tx_vseq.apb_write_send_seq
#   sequencer                    string            41    uvm_test_top.env.apb_uvcc.agent.sequencer                                 
# ---------------------------------------------------------------------------------------------------------------------------------
# 
# UVM_INFO ../apb_uvc/apb_coverage_monitor.sv(95) @ 262190000: uvm_test_top.env.apb_uvcc.agent.monitor [MON] Start TX Triggered
# UVM_INFO ../tb/apb_uart_scoreboard.sv(141) @ 339250000: uvm_test_top.env.scoreboard [SB_UART] UART TX queued: 0x0e
# UVM_INFO ../uart_uvc/uart_coverage_monitor.sv(189) @ 339250000: uvm_test_top.env.uart_uvcc.agent.monitor [MON_TX] DATA is monitored from TX: 0x0e
# UVM_INFO ../tb/apb_uart_scoreboard.sv(214) @ 339250000: uvm_test_top.env.scoreboard [SB_TX] 
# Match  APB->TXDATA == UART_TX == 0x0e (bits=6)
# UVM_INFO ../apb_uvc/apb_seqs.sv(134) @ 349000000: uvm_test_top.env.apb_uvcc.agent.sequencer@@vseq_send_N_TX.single_tx_vseq.stt_seq [read_status_reg_seq] Reading UART Status Register (0x10)
# UVM_INFO ../apb_uvc/apb_driver.sv(52) @ 349050000: uvm_test_top.env.apb_uvcc.agent.driver [apb_driver] APB Transaction:
# ----------------------------------------------------------------------------------------------------------------------
# Name                           Type              Size  Value                                                          
# ----------------------------------------------------------------------------------------------------------------------
# req                            apb_transaction   -     @1188                                                          
#   paddr                        integral          12    'h10                                                           
#   pwdata                       integral          32    'h605c5dba                                                     
#   pwrite                       integral          1     'h0                                                            
#   pstrb                        integral          4     'h1                                                            
#   prdata                       integral          32    'h3                                                            
#   pslverr                      integral          1     'h0X                                                           
#   addr_type                    addr_test_type_e  32    ADDR_RO                                                        
#   write_true_flase             write_quality_e   32    WRITE_ADDR_FALSE                                               
#   begin_time                   time              64    349010000                                                      
#   depth                        int               32    'd4                                                            
#   parent sequence (name)       string            7     stt_seq                                                        
#   parent sequence (full name)  string            63    uvm_test_top.env.vir_seqr.vseq_send_N_TX.single_tx_vseq.stt_seq
#   sequencer                    string            41    uvm_test_top.env.apb_uvcc.agent.sequencer                      
# ----------------------------------------------------------------------------------------------------------------------
# 
# UVM_INFO ../tb/uart_virseqs.sv(163) @ 349050000: uvm_test_top.env.vir_seqr@@vseq_send_N_TX.single_tx_vseq [VSEQ] TX_DONE Detected!
# UVM_INFO ../tb/uart_virseqs.sv(170) @ 349050000: uvm_test_top.env.vir_seqr@@vseq_send_N_TX.single_tx_vseq [VSEQ] ===  TEST COMPLETED ===
# UVM_INFO ../tb/uart_virseqs.sv(191) @ 349050000: uvm_test_top.env.vir_seqr@@vseq_send_N_TX [VSEQ_N] 
#####========================Executing FRAME 5/51...========================#####
# UVM_INFO ../tb/uart_virseqs.sv(111) @ 349050000: uvm_test_top.env.vir_seqr@@vseq_send_N_TX.single_tx_vseq [VSEQ] === STARTING  TEST: DUT -> uart UVC ===
# UVM_INFO ../tb/uart_virseqs.sv(67) @ 349050000: uvm_test_top.env.vir_seqr@@vseq_send_N_TX.single_tx_vseq.config_vseq [VSEQ] Configuring System using shared object from Test...
# UVM_INFO ../apb_uvc/apb_seqs.sv(62) @ 349050000: uvm_test_top.env.apb_uvcc.agent.sequencer@@apb_seq [APB_WR_SEQ] Writing Config to DUT: 0x00000001 
#  (DATA_6BIT, PARITY_DIS, PARITY_ODD, STOP_1BIT)
# UVM_INFO ../apb_uvc/apb_driver.sv(52) @ 349110000: uvm_test_top.env.apb_uvcc.agent.driver [apb_driver] APB Transaction:
# --------------------------------------------------------------------------------------------------------
# Name                           Type              Size  Value                                            
# --------------------------------------------------------------------------------------------------------
# req                            apb_transaction   -     @1214                                            
#   paddr                        integral          12    'h8                                              
#   pwdata                       integral          32    'h1                                              
#   pwrite                       integral          1     'h1                                              
#   pstrb                        integral          4     'h1                                              
#   prdata                       integral          32    'h0xxxxxxxx                                      
#   pslverr                      integral          1     'h0X                                             
#   addr_type                    addr_test_type_e  32    ADDR_VALID                                       
#   write_true_flase             write_quality_e   32    WRITE_ADDR_FALSE                                 
#   begin_time                   time              64    349070000                                        
#   depth                        int               32    'd2                                              
#   parent sequence (name)       string            7     apb_seq                                          
#   parent sequence (full name)  string            49    uvm_test_top.env.apb_uvcc.agent.sequencer.apb_seq
#   sequencer                    string            41    uvm_test_top.env.apb_uvcc.agent.sequencer        
# --------------------------------------------------------------------------------------------------------
# 
# UVM_INFO ../apb_uvc/apb_coverage_monitor.sv(94) @ 349110000: uvm_test_top.env.apb_uvcc.agent.monitor [MON] Updating UART Configuration
# UVM_INFO ../tb/apb_uart_scoreboard.sv(112) @ 349110000: uvm_test_top.env.scoreboard [SB_CFG_SYNC] Config updated via APB: DATA_6BIT, STOP_1BIT
# UVM_INFO ../tb/apb_uart_scoreboard.sv(335) @ 349120000: uvm_test_top.env.scoreboard [SB_CFG_HDL] 
# ============CFG Backdoor check PASSED============
# UVM_INFO ../tb/uart_virseqs.sv(82) @ 349310000: uvm_test_top.env.vir_seqr@@vseq_send_N_TX.single_tx_vseq.config_vseq [VSEQ] UART Driver remains IDLE (TX Only Mode)
# UVM_INFO ../tb/uart_virseqs.sv(40) @ 349310000: uvm_test_top.env.vir_seqr@@vseq_send_N_TX.single_tx_vseq [VSEQ] 
#####===NUM DATA BIT = DATA_6BIT, NUM STOP BIT = STOP_1BIT, PARITY EN = PARITY_DIS, PARITY TYPE = PARITY_ODD===#####
# UVM_INFO ../tb/uart_virseqs.sv(139) @ 349310000: uvm_test_top.env.vir_seqr@@vseq_send_N_TX.single_tx_vseq [VSEQ] 
#####===Calculation: Data=8 bits, Baud=115200, Tbit=8680.56ns===#####
# UVM_INFO ../apb_uvc/apb_seqs.sv(88) @ 349310000: uvm_test_top.env.apb_uvcc.agent.sequencer@@vseq_send_N_TX.single_tx_vseq.apb_write_send_seq [send_tx_data_seq] Send TX with data: 0x49
# UVM_INFO ../apb_uvc/apb_driver.sv(52) @ 349370000: uvm_test_top.env.apb_uvcc.agent.driver [apb_driver] APB Transaction:
# ---------------------------------------------------------------------------------------------------------------------------------
# Name                           Type              Size  Value                                                                     
# ---------------------------------------------------------------------------------------------------------------------------------
# req                            apb_transaction   -     @1226                                                                     
#   paddr                        integral          12    'h0                                                                       
#   pwdata                       integral          32    'h49                                                                      
#   pwrite                       integral          1     'h1                                                                       
#   pstrb                        integral          4     'h1                                                                       
#   prdata                       integral          32    'h0xxxxxxxx                                                               
#   pslverr                      integral          1     'h0X                                                                      
#   addr_type                    addr_test_type_e  32    ADDR_VALID                                                                
#   write_true_flase             write_quality_e   32    WRITE_ADDR_FALSE                                                          
#   begin_time                   time              64    349330000                                                                 
#   depth                        int               32    'd4                                                                       
#   parent sequence (name)       string            18    apb_write_send_seq                                                        
#   parent sequence (full name)  string            74    uvm_test_top.env.vir_seqr.vseq_send_N_TX.single_tx_vseq.apb_write_send_seq
#   sequencer                    string            41    uvm_test_top.env.apb_uvcc.agent.sequencer                                 
# ---------------------------------------------------------------------------------------------------------------------------------
# 
# UVM_INFO ../apb_uvc/apb_coverage_monitor.sv(93) @ 349370000: uvm_test_top.env.apb_uvcc.agent.monitor [MON] Writing TX Data: 0x49
# UVM_INFO ../tb/apb_uart_scoreboard.sv(89) @ 349370000: uvm_test_top.env.scoreboard [SB_APB] APB->TXDATA queued: 0x49
# UVM_INFO ../apb_uvc/apb_driver.sv(52) @ 349430000: uvm_test_top.env.apb_uvcc.agent.driver [apb_driver] APB Transaction:
# ---------------------------------------------------------------------------------------------------------------------------------
# Name                           Type              Size  Value                                                                     
# ---------------------------------------------------------------------------------------------------------------------------------
# req                            apb_transaction   -     @1234                                                                     
#   paddr                        integral          12    'hc                                                                       
#   pwdata                       integral          32    'h1                                                                       
#   pwrite                       integral          1     'h1                                                                       
#   pstrb                        integral          4     'h1                                                                       
#   prdata                       integral          32    'h0xxxxxxxx                                                               
#   pslverr                      integral          1     'h0X                                                                      
#   addr_type                    addr_test_type_e  32    ADDR_VALID                                                                
#   write_true_flase             write_quality_e   32    WRITE_ADDR_FALSE                                                          
#   begin_time                   time              64    349390000                                                                 
#   depth                        int               32    'd4                                                                       
#   parent sequence (name)       string            18    apb_write_send_seq                                                        
#   parent sequence (full name)  string            74    uvm_test_top.env.vir_seqr.vseq_send_N_TX.single_tx_vseq.apb_write_send_seq
#   sequencer                    string            41    uvm_test_top.env.apb_uvcc.agent.sequencer                                 
# ---------------------------------------------------------------------------------------------------------------------------------
# 
# UVM_INFO ../apb_uvc/apb_coverage_monitor.sv(95) @ 349430000: uvm_test_top.env.apb_uvcc.agent.monitor [MON] Start TX Triggered
# UVM_INFO ../tb/apb_uart_scoreboard.sv(141) @ 426250000: uvm_test_top.env.scoreboard [SB_UART] UART TX queued: 0x09
# UVM_INFO ../uart_uvc/uart_coverage_monitor.sv(189) @ 426250000: uvm_test_top.env.uart_uvcc.agent.monitor [MON_TX] DATA is monitored from TX: 0x09
# UVM_INFO ../tb/apb_uart_scoreboard.sv(214) @ 426250000: uvm_test_top.env.scoreboard [SB_TX] 
# Match  APB->TXDATA == UART_TX == 0x09 (bits=6)
# UVM_INFO ../apb_uvc/apb_seqs.sv(134) @ 436240000: uvm_test_top.env.apb_uvcc.agent.sequencer@@vseq_send_N_TX.single_tx_vseq.stt_seq [read_status_reg_seq] Reading UART Status Register (0x10)
# UVM_INFO ../apb_uvc/apb_driver.sv(52) @ 436290000: uvm_test_top.env.apb_uvcc.agent.driver [apb_driver] APB Transaction:
# ----------------------------------------------------------------------------------------------------------------------
# Name                           Type              Size  Value                                                          
# ----------------------------------------------------------------------------------------------------------------------
# req                            apb_transaction   -     @1254                                                          
#   paddr                        integral          12    'h10                                                           
#   pwdata                       integral          32    'h7a264451                                                     
#   pwrite                       integral          1     'h0                                                            
#   pstrb                        integral          4     'h1                                                            
#   prdata                       integral          32    'h3                                                            
#   pslverr                      integral          1     'h0X                                                           
#   addr_type                    addr_test_type_e  32    ADDR_RO                                                        
#   write_true_flase             write_quality_e   32    WRITE_ADDR_FALSE                                               
#   begin_time                   time              64    436250000                                                      
#   depth                        int               32    'd4                                                            
#   parent sequence (name)       string            7     stt_seq                                                        
#   parent sequence (full name)  string            63    uvm_test_top.env.vir_seqr.vseq_send_N_TX.single_tx_vseq.stt_seq
#   sequencer                    string            41    uvm_test_top.env.apb_uvcc.agent.sequencer                      
# ----------------------------------------------------------------------------------------------------------------------
# 
# UVM_INFO ../tb/uart_virseqs.sv(163) @ 436290000: uvm_test_top.env.vir_seqr@@vseq_send_N_TX.single_tx_vseq [VSEQ] TX_DONE Detected!
# UVM_INFO ../tb/uart_virseqs.sv(170) @ 436290000: uvm_test_top.env.vir_seqr@@vseq_send_N_TX.single_tx_vseq [VSEQ] ===  TEST COMPLETED ===
# UVM_INFO ../tb/uart_virseqs.sv(191) @ 436290000: uvm_test_top.env.vir_seqr@@vseq_send_N_TX [VSEQ_N] 
#####========================Executing FRAME 6/51...========================#####
# UVM_INFO ../tb/uart_virseqs.sv(111) @ 436290000: uvm_test_top.env.vir_seqr@@vseq_send_N_TX.single_tx_vseq [VSEQ] === STARTING  TEST: DUT -> uart UVC ===
# UVM_INFO ../tb/uart_virseqs.sv(67) @ 436290000: uvm_test_top.env.vir_seqr@@vseq_send_N_TX.single_tx_vseq.config_vseq [VSEQ] Configuring System using shared object from Test...
# UVM_INFO ../apb_uvc/apb_seqs.sv(62) @ 436290000: uvm_test_top.env.apb_uvcc.agent.sequencer@@apb_seq [APB_WR_SEQ] Writing Config to DUT: 0x00000001 
#  (DATA_6BIT, PARITY_DIS, PARITY_ODD, STOP_1BIT)
# UVM_INFO ../apb_uvc/apb_driver.sv(52) @ 436350000: uvm_test_top.env.apb_uvcc.agent.driver [apb_driver] APB Transaction:
# --------------------------------------------------------------------------------------------------------
# Name                           Type              Size  Value                                            
# --------------------------------------------------------------------------------------------------------
# req                            apb_transaction   -     @1280                                            
#   paddr                        integral          12    'h8                                              
#   pwdata                       integral          32    'h1                                              
#   pwrite                       integral          1     'h1                                              
#   pstrb                        integral          4     'h1                                              
#   prdata                       integral          32    'h0xxxxxxxx                                      
#   pslverr                      integral          1     'h0X                                             
#   addr_type                    addr_test_type_e  32    ADDR_VALID                                       
#   write_true_flase             write_quality_e   32    WRITE_ADDR_FALSE                                 
#   begin_time                   time              64    436310000                                        
#   depth                        int               32    'd2                                              
#   parent sequence (name)       string            7     apb_seq                                          
#   parent sequence (full name)  string            49    uvm_test_top.env.apb_uvcc.agent.sequencer.apb_seq
#   sequencer                    string            41    uvm_test_top.env.apb_uvcc.agent.sequencer        
# --------------------------------------------------------------------------------------------------------
# 
# UVM_INFO ../apb_uvc/apb_coverage_monitor.sv(94) @ 436350000: uvm_test_top.env.apb_uvcc.agent.monitor [MON] Updating UART Configuration
# UVM_INFO ../tb/apb_uart_scoreboard.sv(112) @ 436350000: uvm_test_top.env.scoreboard [SB_CFG_SYNC] Config updated via APB: DATA_6BIT, STOP_1BIT
# UVM_INFO ../tb/apb_uart_scoreboard.sv(335) @ 436360000: uvm_test_top.env.scoreboard [SB_CFG_HDL] 
# ============CFG Backdoor check PASSED============
# UVM_INFO ../tb/uart_virseqs.sv(82) @ 436550000: uvm_test_top.env.vir_seqr@@vseq_send_N_TX.single_tx_vseq.config_vseq [VSEQ] UART Driver remains IDLE (TX Only Mode)
# UVM_INFO ../tb/uart_virseqs.sv(40) @ 436550000: uvm_test_top.env.vir_seqr@@vseq_send_N_TX.single_tx_vseq [VSEQ] 
#####===NUM DATA BIT = DATA_6BIT, NUM STOP BIT = STOP_1BIT, PARITY EN = PARITY_DIS, PARITY TYPE = PARITY_ODD===#####
# UVM_INFO ../tb/uart_virseqs.sv(139) @ 436550000: uvm_test_top.env.vir_seqr@@vseq_send_N_TX.single_tx_vseq [VSEQ] 
#####===Calculation: Data=8 bits, Baud=115200, Tbit=8680.56ns===#####
# UVM_INFO ../apb_uvc/apb_seqs.sv(88) @ 436550000: uvm_test_top.env.apb_uvcc.agent.sequencer@@vseq_send_N_TX.single_tx_vseq.apb_write_send_seq [send_tx_data_seq] Send TX with data: 0xca
# UVM_INFO ../apb_uvc/apb_driver.sv(52) @ 436610000: uvm_test_top.env.apb_uvcc.agent.driver [apb_driver] APB Transaction:
# ---------------------------------------------------------------------------------------------------------------------------------
# Name                           Type              Size  Value                                                                     
# ---------------------------------------------------------------------------------------------------------------------------------
# req                            apb_transaction   -     @1292                                                                     
#   paddr                        integral          12    'h0                                                                       
#   pwdata                       integral          32    'hca                                                                      
#   pwrite                       integral          1     'h1                                                                       
#   pstrb                        integral          4     'h1                                                                       
#   prdata                       integral          32    'h0xxxxxxxx                                                               
#   pslverr                      integral          1     'h0X                                                                      
#   addr_type                    addr_test_type_e  32    ADDR_VALID                                                                
#   write_true_flase             write_quality_e   32    WRITE_ADDR_TRUE                                                           
#   begin_time                   time              64    436570000                                                                 
#   depth                        int               32    'd4                                                                       
#   parent sequence (name)       string            18    apb_write_send_seq                                                        
#   parent sequence (full name)  string            74    uvm_test_top.env.vir_seqr.vseq_send_N_TX.single_tx_vseq.apb_write_send_seq
#   sequencer                    string            41    uvm_test_top.env.apb_uvcc.agent.sequencer                                 
# ---------------------------------------------------------------------------------------------------------------------------------
# 
# UVM_INFO ../apb_uvc/apb_coverage_monitor.sv(93) @ 436610000: uvm_test_top.env.apb_uvcc.agent.monitor [MON] Writing TX Data: 0xca
# UVM_INFO ../tb/apb_uart_scoreboard.sv(89) @ 436610000: uvm_test_top.env.scoreboard [SB_APB] APB->TXDATA queued: 0xca
# UVM_INFO ../apb_uvc/apb_driver.sv(52) @ 436670000: uvm_test_top.env.apb_uvcc.agent.driver [apb_driver] APB Transaction:
# ---------------------------------------------------------------------------------------------------------------------------------
# Name                           Type              Size  Value                                                                     
# ---------------------------------------------------------------------------------------------------------------------------------
# req                            apb_transaction   -     @1300                                                                     
#   paddr                        integral          12    'hc                                                                       
#   pwdata                       integral          32    'h1                                                                       
#   pwrite                       integral          1     'h1                                                                       
#   pstrb                        integral          4     'h1                                                                       
#   prdata                       integral          32    'h0xxxxxxxx                                                               
#   pslverr                      integral          1     'h0X                                                                      
#   addr_type                    addr_test_type_e  32    ADDR_VALID                                                                
#   write_true_flase             write_quality_e   32    WRITE_ADDR_FALSE                                                          
#   begin_time                   time              64    436630000                                                                 
#   depth                        int               32    'd4                                                                       
#   parent sequence (name)       string            18    apb_write_send_seq                                                        
#   parent sequence (full name)  string            74    uvm_test_top.env.vir_seqr.vseq_send_N_TX.single_tx_vseq.apb_write_send_seq
#   sequencer                    string            41    uvm_test_top.env.apb_uvcc.agent.sequencer                                 
# ---------------------------------------------------------------------------------------------------------------------------------
# 
# UVM_INFO ../apb_uvc/apb_coverage_monitor.sv(95) @ 436670000: uvm_test_top.env.apb_uvcc.agent.monitor [MON] Start TX Triggered
# UVM_INFO ../tb/apb_uart_scoreboard.sv(141) @ 513250000: uvm_test_top.env.scoreboard [SB_UART] UART TX queued: 0x0a
# UVM_INFO ../uart_uvc/uart_coverage_monitor.sv(189) @ 513250000: uvm_test_top.env.uart_uvcc.agent.monitor [MON_TX] DATA is monitored from TX: 0x0a
# UVM_INFO ../tb/apb_uart_scoreboard.sv(214) @ 513250000: uvm_test_top.env.scoreboard [SB_TX] 
# Match  APB->TXDATA == UART_TX == 0x0a (bits=6)
# UVM_INFO ../apb_uvc/apb_seqs.sv(134) @ 523480000: uvm_test_top.env.apb_uvcc.agent.sequencer@@vseq_send_N_TX.single_tx_vseq.stt_seq [read_status_reg_seq] Reading UART Status Register (0x10)
# UVM_INFO ../apb_uvc/apb_driver.sv(52) @ 523530000: uvm_test_top.env.apb_uvcc.agent.driver [apb_driver] APB Transaction:
# ----------------------------------------------------------------------------------------------------------------------
# Name                           Type              Size  Value                                                          
# ----------------------------------------------------------------------------------------------------------------------
# req                            apb_transaction   -     @1320                                                          
#   paddr                        integral          12    'h10                                                           
#   pwdata                       integral          32    'hb120e0ef                                                     
#   pwrite                       integral          1     'h0                                                            
#   pstrb                        integral          4     'h1                                                            
#   prdata                       integral          32    'h3                                                            
#   pslverr                      integral          1     'h0X                                                           
#   addr_type                    addr_test_type_e  32    ADDR_RO                                                        
#   write_true_flase             write_quality_e   32    WRITE_ADDR_TRUE                                                
#   begin_time                   time              64    523490000                                                      
#   depth                        int               32    'd4                                                            
#   parent sequence (name)       string            7     stt_seq                                                        
#   parent sequence (full name)  string            63    uvm_test_top.env.vir_seqr.vseq_send_N_TX.single_tx_vseq.stt_seq
#   sequencer                    string            41    uvm_test_top.env.apb_uvcc.agent.sequencer                      
# ----------------------------------------------------------------------------------------------------------------------
# 
# UVM_INFO ../tb/uart_virseqs.sv(163) @ 523530000: uvm_test_top.env.vir_seqr@@vseq_send_N_TX.single_tx_vseq [VSEQ] TX_DONE Detected!
# UVM_INFO ../tb/uart_virseqs.sv(170) @ 523530000: uvm_test_top.env.vir_seqr@@vseq_send_N_TX.single_tx_vseq [VSEQ] ===  TEST COMPLETED ===
# UVM_INFO ../tb/uart_virseqs.sv(191) @ 523530000: uvm_test_top.env.vir_seqr@@vseq_send_N_TX [VSEQ_N] 
#####========================Executing FRAME 7/51...========================#####
# UVM_INFO ../tb/uart_virseqs.sv(111) @ 523530000: uvm_test_top.env.vir_seqr@@vseq_send_N_TX.single_tx_vseq [VSEQ] === STARTING  TEST: DUT -> uart UVC ===
# UVM_INFO ../tb/uart_virseqs.sv(67) @ 523530000: uvm_test_top.env.vir_seqr@@vseq_send_N_TX.single_tx_vseq.config_vseq [VSEQ] Configuring System using shared object from Test...
# UVM_INFO ../apb_uvc/apb_seqs.sv(62) @ 523530000: uvm_test_top.env.apb_uvcc.agent.sequencer@@apb_seq [APB_WR_SEQ] Writing Config to DUT: 0x00000001 
#  (DATA_6BIT, PARITY_DIS, PARITY_ODD, STOP_1BIT)
# UVM_INFO ../apb_uvc/apb_driver.sv(52) @ 523590000: uvm_test_top.env.apb_uvcc.agent.driver [apb_driver] APB Transaction:
# --------------------------------------------------------------------------------------------------------
# Name                           Type              Size  Value                                            
# --------------------------------------------------------------------------------------------------------
# req                            apb_transaction   -     @1346                                            
#   paddr                        integral          12    'h8                                              
#   pwdata                       integral          32    'h1                                              
#   pwrite                       integral          1     'h1                                              
#   pstrb                        integral          4     'h1                                              
#   prdata                       integral          32    'h0xxxxxxxx                                      
#   pslverr                      integral          1     'h0X                                             
#   addr_type                    addr_test_type_e  32    ADDR_VALID                                       
#   write_true_flase             write_quality_e   32    WRITE_ADDR_TRUE                                  
#   begin_time                   time              64    523550000                                        
#   depth                        int               32    'd2                                              
#   parent sequence (name)       string            7     apb_seq                                          
#   parent sequence (full name)  string            49    uvm_test_top.env.apb_uvcc.agent.sequencer.apb_seq
#   sequencer                    string            41    uvm_test_top.env.apb_uvcc.agent.sequencer        
# --------------------------------------------------------------------------------------------------------
# 
# UVM_INFO ../apb_uvc/apb_coverage_monitor.sv(94) @ 523590000: uvm_test_top.env.apb_uvcc.agent.monitor [MON] Updating UART Configuration
# UVM_INFO ../tb/apb_uart_scoreboard.sv(112) @ 523590000: uvm_test_top.env.scoreboard [SB_CFG_SYNC] Config updated via APB: DATA_6BIT, STOP_1BIT
# UVM_INFO ../tb/apb_uart_scoreboard.sv(335) @ 523600000: uvm_test_top.env.scoreboard [SB_CFG_HDL] 
# ============CFG Backdoor check PASSED============
# UVM_INFO ../tb/uart_virseqs.sv(82) @ 523790000: uvm_test_top.env.vir_seqr@@vseq_send_N_TX.single_tx_vseq.config_vseq [VSEQ] UART Driver remains IDLE (TX Only Mode)
# UVM_INFO ../tb/uart_virseqs.sv(40) @ 523790000: uvm_test_top.env.vir_seqr@@vseq_send_N_TX.single_tx_vseq [VSEQ] 
#####===NUM DATA BIT = DATA_6BIT, NUM STOP BIT = STOP_1BIT, PARITY EN = PARITY_DIS, PARITY TYPE = PARITY_ODD===#####
# UVM_INFO ../tb/uart_virseqs.sv(139) @ 523790000: uvm_test_top.env.vir_seqr@@vseq_send_N_TX.single_tx_vseq [VSEQ] 
#####===Calculation: Data=8 bits, Baud=115200, Tbit=8680.56ns===#####
# UVM_INFO ../apb_uvc/apb_seqs.sv(88) @ 523790000: uvm_test_top.env.apb_uvcc.agent.sequencer@@vseq_send_N_TX.single_tx_vseq.apb_write_send_seq [send_tx_data_seq] Send TX with data: 0xe7
# UVM_INFO ../apb_uvc/apb_driver.sv(52) @ 523850000: uvm_test_top.env.apb_uvcc.agent.driver [apb_driver] APB Transaction:
# ---------------------------------------------------------------------------------------------------------------------------------
# Name                           Type              Size  Value                                                                     
# ---------------------------------------------------------------------------------------------------------------------------------
# req                            apb_transaction   -     @1358                                                                     
#   paddr                        integral          12    'h0                                                                       
#   pwdata                       integral          32    'he7                                                                      
#   pwrite                       integral          1     'h1                                                                       
#   pstrb                        integral          4     'h1                                                                       
#   prdata                       integral          32    'h0xxxxxxxx                                                               
#   pslverr                      integral          1     'h0X                                                                      
#   addr_type                    addr_test_type_e  32    ADDR_VALID                                                                
#   write_true_flase             write_quality_e   32    WRITE_ADDR_TRUE                                                           
#   begin_time                   time              64    523810000                                                                 
#   depth                        int               32    'd4                                                                       
#   parent sequence (name)       string            18    apb_write_send_seq                                                        
#   parent sequence (full name)  string            74    uvm_test_top.env.vir_seqr.vseq_send_N_TX.single_tx_vseq.apb_write_send_seq
#   sequencer                    string            41    uvm_test_top.env.apb_uvcc.agent.sequencer                                 
# ---------------------------------------------------------------------------------------------------------------------------------
# 
# UVM_INFO ../apb_uvc/apb_coverage_monitor.sv(93) @ 523850000: uvm_test_top.env.apb_uvcc.agent.monitor [MON] Writing TX Data: 0xe7
# UVM_INFO ../tb/apb_uart_scoreboard.sv(89) @ 523850000: uvm_test_top.env.scoreboard [SB_APB] APB->TXDATA queued: 0xe7
# UVM_INFO ../apb_uvc/apb_driver.sv(52) @ 523910000: uvm_test_top.env.apb_uvcc.agent.driver [apb_driver] APB Transaction:
# ---------------------------------------------------------------------------------------------------------------------------------
# Name                           Type              Size  Value                                                                     
# ---------------------------------------------------------------------------------------------------------------------------------
# req                            apb_transaction   -     @1366                                                                     
#   paddr                        integral          12    'hc                                                                       
#   pwdata                       integral          32    'h1                                                                       
#   pwrite                       integral          1     'h1                                                                       
#   pstrb                        integral          4     'h1                                                                       
#   prdata                       integral          32    'h0xxxxxxxx                                                               
#   pslverr                      integral          1     'h0X                                                                      
#   addr_type                    addr_test_type_e  32    ADDR_VALID                                                                
#   write_true_flase             write_quality_e   32    WRITE_ADDR_TRUE                                                           
#   begin_time                   time              64    523870000                                                                 
#   depth                        int               32    'd4                                                                       
#   parent sequence (name)       string            18    apb_write_send_seq                                                        
#   parent sequence (full name)  string            74    uvm_test_top.env.vir_seqr.vseq_send_N_TX.single_tx_vseq.apb_write_send_seq
#   sequencer                    string            41    uvm_test_top.env.apb_uvcc.agent.sequencer                                 
# ---------------------------------------------------------------------------------------------------------------------------------
# 
# UVM_INFO ../apb_uvc/apb_coverage_monitor.sv(95) @ 523910000: uvm_test_top.env.apb_uvcc.agent.monitor [MON] Start TX Triggered
# UVM_INFO ../tb/apb_uart_scoreboard.sv(141) @ 600250000: uvm_test_top.env.scoreboard [SB_UART] UART TX queued: 0x27
# UVM_INFO ../uart_uvc/uart_coverage_monitor.sv(189) @ 600250000: uvm_test_top.env.uart_uvcc.agent.monitor [MON_TX] DATA is monitored from TX: 0x27
# UVM_INFO ../tb/apb_uart_scoreboard.sv(214) @ 600250000: uvm_test_top.env.scoreboard [SB_TX] 
# Match  APB->TXDATA == UART_TX == 0x27 (bits=6)
# UVM_INFO ../apb_uvc/apb_seqs.sv(134) @ 610720000: uvm_test_top.env.apb_uvcc.agent.sequencer@@vseq_send_N_TX.single_tx_vseq.stt_seq [read_status_reg_seq] Reading UART Status Register (0x10)
# UVM_INFO ../apb_uvc/apb_driver.sv(52) @ 610770000: uvm_test_top.env.apb_uvcc.agent.driver [apb_driver] APB Transaction:
# ----------------------------------------------------------------------------------------------------------------------
# Name                           Type              Size  Value                                                          
# ----------------------------------------------------------------------------------------------------------------------
# req                            apb_transaction   -     @1386                                                          
#   paddr                        integral          12    'h10                                                           
#   pwdata                       integral          32    'h97ba9d7b                                                     
#   pwrite                       integral          1     'h0                                                            
#   pstrb                        integral          4     'h0                                                            
#   prdata                       integral          32    'h3                                                            
#   pslverr                      integral          1     'h0X                                                           
#   addr_type                    addr_test_type_e  32    ADDR_RO                                                        
#   write_true_flase             write_quality_e   32    WRITE_ADDR_FALSE                                               
#   begin_time                   time              64    610730000                                                      
#   depth                        int               32    'd4                                                            
#   parent sequence (name)       string            7     stt_seq                                                        
#   parent sequence (full name)  string            63    uvm_test_top.env.vir_seqr.vseq_send_N_TX.single_tx_vseq.stt_seq
#   sequencer                    string            41    uvm_test_top.env.apb_uvcc.agent.sequencer                      
# ----------------------------------------------------------------------------------------------------------------------
# 
# UVM_INFO ../tb/uart_virseqs.sv(163) @ 610770000: uvm_test_top.env.vir_seqr@@vseq_send_N_TX.single_tx_vseq [VSEQ] TX_DONE Detected!
# UVM_INFO ../tb/uart_virseqs.sv(170) @ 610770000: uvm_test_top.env.vir_seqr@@vseq_send_N_TX.single_tx_vseq [VSEQ] ===  TEST COMPLETED ===
# UVM_INFO ../tb/uart_virseqs.sv(191) @ 610770000: uvm_test_top.env.vir_seqr@@vseq_send_N_TX [VSEQ_N] 
#####========================Executing FRAME 8/51...========================#####
# UVM_INFO ../tb/uart_virseqs.sv(111) @ 610770000: uvm_test_top.env.vir_seqr@@vseq_send_N_TX.single_tx_vseq [VSEQ] === STARTING  TEST: DUT -> uart UVC ===
# UVM_INFO ../tb/uart_virseqs.sv(67) @ 610770000: uvm_test_top.env.vir_seqr@@vseq_send_N_TX.single_tx_vseq.config_vseq [VSEQ] Configuring System using shared object from Test...
# UVM_INFO ../apb_uvc/apb_seqs.sv(62) @ 610770000: uvm_test_top.env.apb_uvcc.agent.sequencer@@apb_seq [APB_WR_SEQ] Writing Config to DUT: 0x00000001 
#  (DATA_6BIT, PARITY_DIS, PARITY_ODD, STOP_1BIT)
# UVM_INFO ../apb_uvc/apb_driver.sv(52) @ 610830000: uvm_test_top.env.apb_uvcc.agent.driver [apb_driver] APB Transaction:
# --------------------------------------------------------------------------------------------------------
# Name                           Type              Size  Value                                            
# --------------------------------------------------------------------------------------------------------
# req                            apb_transaction   -     @1412                                            
#   paddr                        integral          12    'h8                                              
#   pwdata                       integral          32    'h1                                              
#   pwrite                       integral          1     'h1                                              
#   pstrb                        integral          4     'h1                                              
#   prdata                       integral          32    'h0xxxxxxxx                                      
#   pslverr                      integral          1     'h0X                                             
#   addr_type                    addr_test_type_e  32    ADDR_VALID                                       
#   write_true_flase             write_quality_e   32    WRITE_ADDR_FALSE                                 
#   begin_time                   time              64    610790000                                        
#   depth                        int               32    'd2                                              
#   parent sequence (name)       string            7     apb_seq                                          
#   parent sequence (full name)  string            49    uvm_test_top.env.apb_uvcc.agent.sequencer.apb_seq
#   sequencer                    string            41    uvm_test_top.env.apb_uvcc.agent.sequencer        
# --------------------------------------------------------------------------------------------------------
# 
# UVM_INFO ../apb_uvc/apb_coverage_monitor.sv(94) @ 610830000: uvm_test_top.env.apb_uvcc.agent.monitor [MON] Updating UART Configuration
# UVM_INFO ../tb/apb_uart_scoreboard.sv(112) @ 610830000: uvm_test_top.env.scoreboard [SB_CFG_SYNC] Config updated via APB: DATA_6BIT, STOP_1BIT
# UVM_INFO ../tb/apb_uart_scoreboard.sv(335) @ 610840000: uvm_test_top.env.scoreboard [SB_CFG_HDL] 
# ============CFG Backdoor check PASSED============
# UVM_INFO ../tb/uart_virseqs.sv(82) @ 611030000: uvm_test_top.env.vir_seqr@@vseq_send_N_TX.single_tx_vseq.config_vseq [VSEQ] UART Driver remains IDLE (TX Only Mode)
# UVM_INFO ../tb/uart_virseqs.sv(40) @ 611030000: uvm_test_top.env.vir_seqr@@vseq_send_N_TX.single_tx_vseq [VSEQ] 
#####===NUM DATA BIT = DATA_6BIT, NUM STOP BIT = STOP_1BIT, PARITY EN = PARITY_DIS, PARITY TYPE = PARITY_ODD===#####
# UVM_INFO ../tb/uart_virseqs.sv(139) @ 611030000: uvm_test_top.env.vir_seqr@@vseq_send_N_TX.single_tx_vseq [VSEQ] 
#####===Calculation: Data=8 bits, Baud=115200, Tbit=8680.56ns===#####
# UVM_INFO ../apb_uvc/apb_seqs.sv(88) @ 611030000: uvm_test_top.env.apb_uvcc.agent.sequencer@@vseq_send_N_TX.single_tx_vseq.apb_write_send_seq [send_tx_data_seq] Send TX with data: 0x20
# UVM_INFO ../apb_uvc/apb_driver.sv(52) @ 611090000: uvm_test_top.env.apb_uvcc.agent.driver [apb_driver] APB Transaction:
