# vsim -c tb_top hw_top -wlf vsim.wlf -sv_seed random -solvefaildebug -assertdebug -sva -coverage -voptargs="+acc" -l ./log/vsim.log "+UVM_VERBOSITY=UVM_HIGH" "+UVM_TESTNAME=test_send_N_frame" -sv_lib uvm_dpi -do "coverage save -onexit -assert -code bcefs -directive -cvg coverage.ucdb; log -r /*; run -all; quit" 
# Start time: 00:27:36 on Jan 27,2026
# ** Note: (vsim-3812) Design is being optimized...
# ** Note: (vopt-143) Recognized 2 FSMs in module "uart(fast)".
# //  Questa Sim-64
# //  Version 10.7c linux_x86_64 Aug 17 2018
# //
# //  Copyright 1991-2018 Mentor Graphics Corporation
# //  All Rights Reserved.
# //
# //  QuestaSim and its associated documentation contain trade
# //  secrets and commercial or financial information that are the property of
# //  Mentor Graphics Corporation and are privileged, confidential,
# //  and exempt from disclosure under the Freedom of Information Act,
# //  5 U.S.C. Section 552. Furthermore, this information
# //  is prohibited from disclosure under the Trade Secrets Act,
# //  18 U.S.C. Section 1905.
# //
# Loading sv_std.std
# Loading work.apb_if(fast)
# Loading work.uart_if(fast)
# Loading mtiUvm.uvm_pkg
# Loading work.uart_common_pkg(fast)
# Loading work.uart_pkg(fast)
# Loading work.apb_pkg(fast)
# Loading work.uart_tb_pkg(fast)
# Loading work.tb_top(fast)
# Loading work.hw_top(fast)
# Loading work.apb_if_sv_unit(fast)
# Loading work.apb_if(fast)
# Loading work.uart_if_sv_unit(fast)
# Loading work.uart_if(fast)
# Loading work.uart(fast)
# Loading mtiUvm.questa_uvm_pkg(fast)
# Loading ./uvm_dpi.so
# Sv_Seed = 4019510815
# coverage save -onexit -assert -code bcefs -directive -cvg coverage.ucdb
#  log -r /*
#  run -all
# ----------------------------------------------------------------
# UVM-1.1d
# (C) 2007-2013 Mentor Graphics Corporation
# (C) 2007-2013 Cadence Design Systems, Inc.
# (C) 2006-2013 Synopsys, Inc.
# (C) 2011-2013 Cypress Semiconductor Corp.
# ----------------------------------------------------------------
# 
#   ***********       IMPORTANT RELEASE NOTES         ************
# 
#   You are using a version of the UVM library that has been compiled
#   with `UVM_NO_DEPRECATED undefined.
#   See http://www.eda.org/svdb/view.php?id=3313 for more details.
# 
#   You are using a version of the UVM library that has been compiled
#   with `UVM_OBJECT_MUST_HAVE_CONSTRUCTOR undefined.
#   See http://www.eda.org/svdb/view.php?id=3770 for more details.
# 
#       (Specify +UVM_NO_RELNOTES to turn off this notice)
# 
# UVM_INFO verilog_src/questa_uvm_pkg-1.2/src/questa_uvm_pkg.sv(215) @ 0: reporter [Questa UVM] QUESTA_UVM-1.2.3
# UVM_INFO verilog_src/questa_uvm_pkg-1.2/src/questa_uvm_pkg.sv(216) @ 0: reporter [Questa UVM]  questa_uvm::init(+struct)
# UVM_INFO @ 0: reporter [RNTST] Running test test_send_N_frame...
# UVM_INFO ../tb/apb_uart_testlib.sv(116) @ 0: uvm_test_top [TEST] 
####======================== SEND N FRAME configured (TX Monitoring Only) ========================#####
# UVM_INFO ../tb/apb_uart_env.sv(17) @ 0: uvm_test_top.env [APB_UART_ENVIRONMENT] The env is being build phase
# UVM_INFO ../uart_uvc/uart_agent.sv(25) @ 0: uvm_test_top.env.uart_uvcc.agent [uart_agent] Agent set to PASSIVE (TX Only monitoring)
# UVM_INFO ../tb/apb_uart_testlib.sv(32) @ 0: uvm_test_top [test_send_N_frame] Printing topology:
# UVM_INFO @ 0: reporter [UVMTOP] UVM testbench topology:
# ------------------------------------------------------------------------
# Name                           Type                     Size  Value     
# ------------------------------------------------------------------------
# uvm_test_top                   test_send_N_frame        -     @476      
#   env                          apb_uart_env             -     @494      
#     apb_uvcc                   apb_uvc                  -     @502      
#       agent                    apb_agent                -     @652      
#         driver                 apb_driver               -     @787      
#           rsp_port             uvm_analysis_port        -     @802      
#           seq_item_port        uvm_seq_item_pull_port   -     @794      
#           num_trans            integral                 32    'h0       
#         monitor                apb_coverage_monitor     -     @663      
#           item_collected_port  uvm_analysis_port        -     @670      
#           num_trans_col        integral                 32    'h0       
#           coverage_control     cover_e                  1     COV_ENABLE
#         sequencer              apb_sequencer            -     @678      
#           rsp_export           uvm_analysis_export      -     @685      
#           seq_item_export      uvm_seq_item_pull_imp    -     @779      
#           arbitration_queue    array                    0     -         
#           lock_queue           array                    0     -         
#           num_last_reqs        integral                 32    'd1       
#           num_last_rsps        integral                 32    'd1       
#         is_active              uvm_active_passive_enum  1     UVM_ACTIVE
#     scoreboard                 apb_uart_scoreboard      -     @516      
#       apb_port                 uvm_analysis_imp_apb     -     @523      
#       uart_port                uvm_analysis_imp_uart    -     @531      
#     uart_uvcc                  uart_uvc                 -     @509      
#       agent                    uart_agent               -     @825      
#         monitor                uart_coverage_monitor    -     @834      
#           item_collected_port  uvm_analysis_port        -     @841      
#     vir_seqr                   uart_virsequencer        -     @539      
#       rsp_export               uvm_analysis_export      -     @546      
#       seq_item_export          uvm_seq_item_pull_imp    -     @640      
#       arbitration_queue        array                    0     -         
#       lock_queue               array                    0     -         
#       num_last_reqs            integral                 32    'd1       
#       num_last_rsps            integral                 32    'd1       
# ------------------------------------------------------------------------
# 
# UVM_INFO verilog_src/questa_uvm_pkg-1.2/src/questa_uvm_pkg.sv(277) @ 0: reporter [Questa UVM] End Of Elaboration
# UVM_INFO ../apb_uvc/apb_driver.sv(22) @ 0: uvm_test_top.env.apb_uvcc.agent.driver [apb_driver] Start of simulation for uvm_test_top.env.apb_uvcc.agent.driver
# UVM_INFO ../apb_uvc/apb_coverage_monitor.sv(71) @ 0: uvm_test_top.env.apb_uvcc.agent.monitor [apb_coverage_monitor] Start of simulation for uvm_test_top.env.apb_uvcc.agent.monitor
# UVM_INFO ../apb_uvc/apb_sequencer.sv(11) @ 0: uvm_test_top.env.apb_uvcc.agent.sequencer [apb_sequencer] start of simulation for uvm_test_top.env.apb_uvcc.agent.sequencer
# UVM_INFO ../apb_uvc/apb_agent.sv(35) @ 0: uvm_test_top.env.apb_uvcc.agent [apb_agent] Start of simulation for uvm_test_top.env.apb_uvcc.agent
# UVM_INFO ../apb_uvc/apb_uvc.sv(19) @ 0: uvm_test_top.env.apb_uvcc [apb_uvc] Start of simulation for uvm_test_top.env.apb_uvcc
# UVM_INFO ../uart_uvc/uart_agent.sv(48) @ 0: uvm_test_top.env.uart_uvcc.agent [uart_agent] Start of simulation for uvm_test_top.env.uart_uvcc.agent
# UVM_INFO ../uart_uvc/uart_agent.sv(49) @ 0: uvm_test_top.env.uart_uvcc.agent [uart_agent] Agent started in UVM_PASSIVE mode.
# UVM_INFO ../tb/apb_uart_testlib.sv(37) @ 0: uvm_test_top [test_send_N_frame] start of simulation for uvm_test_top
# UVM_INFO ../tb/apb_uart_scoreboard.sv(121) @ 0: uvm_test_top.env.scoreboard [SB_RESET] Reset detected! Clearing all queues...
# UVM_INFO ../tb/uart_virseqs.sv(21) @ 0: uvm_test_top.env.vir_seqr@@vseq_send_N_TX [vseq_send_N_TX] raise objection
# UVM_INFO ../tb/uart_virseqs.sv(188) @ 0: uvm_test_top.env.vir_seqr@@vseq_send_N_TX [VSEQ_N] === STARTING TEST: SEND 58 FRAMES ===
# UVM_INFO ../tb/uart_virseqs.sv(191) @ 0: uvm_test_top.env.vir_seqr@@vseq_send_N_TX [VSEQ_N] 
#####========================Executing FRAME 1/58...========================#####
# UVM_INFO ../tb/uart_virseqs.sv(111) @ 0: uvm_test_top.env.vir_seqr@@vseq_send_N_TX.single_tx_vseq [VSEQ] === STARTING  TEST: DUT -> uart UVC ===
# UVM_INFO ../tb/uart_virseqs.sv(67) @ 0: uvm_test_top.env.vir_seqr@@vseq_send_N_TX.single_tx_vseq.config_vseq [VSEQ] Configuring System using shared object from Test...
# UVM_INFO ../apb_uvc/apb_seqs.sv(62) @ 0: uvm_test_top.env.apb_uvcc.agent.sequencer@@apb_seq [APB_WR_SEQ] Writing Config to DUT: 0x00000006 
#  (DATA_7BIT, PARITY_DIS, PARITY_ODD, STOP_2BIT)
# UVM_INFO ../uart_uvc/uart_coverage_monitor.sv(95) @ 100000: uvm_test_top.env.uart_uvcc.agent.monitor [uart_coverage_monitor] Coverage Monitor started.
# UVM_INFO ../apb_uvc/apb_driver.sv(35) @ 100000: uvm_test_top.env.apb_uvcc.agent.driver [apb_driver] Reset released, APB Driver active
# UVM_INFO ../apb_uvc/apb_driver.sv(52) @ 150000: uvm_test_top.env.apb_uvcc.agent.driver [apb_driver] APB Transaction:
# --------------------------------------------------------------------------------------------------------
# Name                           Type              Size  Value                                            
# --------------------------------------------------------------------------------------------------------
# req                            apb_transaction   -     @890                                             
#   paddr                        integral          12    'h8                                              
#   pwdata                       integral          32    'h6                                              
#   pwrite                       integral          1     'h1                                              
#   pstrb                        integral          4     'h1                                              
#   prdata                       integral          32    'h0xxxxxxxx                                      
#   pslverr                      integral          1     'h0X                                             
#   addr_type                    addr_test_type_e  32    ADDR_VALID                                       
#   write_true_flase             write_quality_e   32    WRITE_ADDR_TRUE                                  
#   begin_time                   time              64    110000                                           
#   depth                        int               32    'd2                                              
#   parent sequence (name)       string            7     apb_seq                                          
#   parent sequence (full name)  string            49    uvm_test_top.env.apb_uvcc.agent.sequencer.apb_seq
#   sequencer                    string            41    uvm_test_top.env.apb_uvcc.agent.sequencer        
# --------------------------------------------------------------------------------------------------------
# 
# UVM_INFO ../apb_uvc/apb_coverage_monitor.sv(94) @ 150000: uvm_test_top.env.apb_uvcc.agent.monitor [MON] Updating UART Configuration
# UVM_INFO ../tb/apb_uart_scoreboard.sv(112) @ 150000: uvm_test_top.env.scoreboard [SB_CFG_SYNC] Config updated via APB: DATA_7BIT, STOP_2BIT
# UVM_INFO ../tb/apb_uart_scoreboard.sv(335) @ 160000: uvm_test_top.env.scoreboard [SB_CFG_HDL] 
# ============CFG Backdoor check PASSED============
# UVM_INFO ../tb/uart_virseqs.sv(82) @ 350000: uvm_test_top.env.vir_seqr@@vseq_send_N_TX.single_tx_vseq.config_vseq [VSEQ] UART Driver remains IDLE (TX Only Mode)
# UVM_INFO ../tb/uart_virseqs.sv(40) @ 350000: uvm_test_top.env.vir_seqr@@vseq_send_N_TX.single_tx_vseq [VSEQ] 
#####===NUM DATA BIT = DATA_7BIT, NUM STOP BIT = STOP_2BIT, PARITY EN = PARITY_DIS, PARITY TYPE = PARITY_ODD===#####
# UVM_INFO ../tb/uart_virseqs.sv(139) @ 350000: uvm_test_top.env.vir_seqr@@vseq_send_N_TX.single_tx_vseq [VSEQ] 
#####===Calculation: Data=10 bits, Baud=115200, Tbit=8680.56ns===#####
# UVM_INFO ../apb_uvc/apb_seqs.sv(88) @ 350000: uvm_test_top.env.apb_uvcc.agent.sequencer@@vseq_send_N_TX.single_tx_vseq.apb_write_send_seq [send_tx_data_seq] Send TX with data: 0x6c
# UVM_INFO ../apb_uvc/apb_driver.sv(52) @ 410000: uvm_test_top.env.apb_uvcc.agent.driver [apb_driver] APB Transaction:
# ---------------------------------------------------------------------------------------------------------------------------------
# Name                           Type              Size  Value                                                                     
# ---------------------------------------------------------------------------------------------------------------------------------
# req                            apb_transaction   -     @960                                                                      
#   paddr                        integral          12    'h0                                                                       
#   pwdata                       integral          32    'h6c                                                                      
#   pwrite                       integral          1     'h1                                                                       
#   pstrb                        integral          4     'h1                                                                       
#   prdata                       integral          32    'h0xxxxxxxx                                                               
#   pslverr                      integral          1     'h0X                                                                      
#   addr_type                    addr_test_type_e  32    ADDR_VALID                                                                
#   write_true_flase             write_quality_e   32    WRITE_ADDR_FALSE                                                          
#   begin_time                   time              64    370000                                                                    
#   depth                        int               32    'd4                                                                       
#   parent sequence (name)       string            18    apb_write_send_seq                                                        
#   parent sequence (full name)  string            74    uvm_test_top.env.vir_seqr.vseq_send_N_TX.single_tx_vseq.apb_write_send_seq
#   sequencer                    string            41    uvm_test_top.env.apb_uvcc.agent.sequencer                                 
# ---------------------------------------------------------------------------------------------------------------------------------
# 
# UVM_INFO ../apb_uvc/apb_coverage_monitor.sv(93) @ 410000: uvm_test_top.env.apb_uvcc.agent.monitor [MON] Writing TX Data: 0x6c
# UVM_INFO ../tb/apb_uart_scoreboard.sv(89) @ 410000: uvm_test_top.env.scoreboard [SB_APB] APB->TXDATA queued: 0x6c
# UVM_INFO ../apb_uvc/apb_driver.sv(52) @ 470000: uvm_test_top.env.apb_uvcc.agent.driver [apb_driver] APB Transaction:
# ---------------------------------------------------------------------------------------------------------------------------------
# Name                           Type              Size  Value                                                                     
# ---------------------------------------------------------------------------------------------------------------------------------
# req                            apb_transaction   -     @968                                                                      
#   paddr                        integral          12    'hc                                                                       
#   pwdata                       integral          32    'h1                                                                       
#   pwrite                       integral          1     'h1                                                                       
#   pstrb                        integral          4     'h1                                                                       
#   prdata                       integral          32    'h0xxxxxxxx                                                               
#   pslverr                      integral          1     'h0X                                                                      
#   addr_type                    addr_test_type_e  32    ADDR_VALID                                                                
#   write_true_flase             write_quality_e   32    WRITE_ADDR_TRUE                                                           
#   begin_time                   time              64    430000                                                                    
#   depth                        int               32    'd4                                                                       
#   parent sequence (name)       string            18    apb_write_send_seq                                                        
#   parent sequence (full name)  string            74    uvm_test_top.env.vir_seqr.vseq_send_N_TX.single_tx_vseq.apb_write_send_seq
#   sequencer                    string            41    uvm_test_top.env.apb_uvcc.agent.sequencer                                 
# ---------------------------------------------------------------------------------------------------------------------------------
# 
# UVM_INFO ../apb_uvc/apb_coverage_monitor.sv(95) @ 470000: uvm_test_top.env.apb_uvcc.agent.monitor [MON] Start TX Triggered
# UVM_INFO ../tb/apb_uart_scoreboard.sv(141) @ 95610000: uvm_test_top.env.scoreboard [SB_UART] UART TX queued: 0x6c
# UVM_INFO ../uart_uvc/uart_coverage_monitor.sv(189) @ 95610000: uvm_test_top.env.uart_uvcc.agent.monitor [MON_TX] DATA is monitored from TX: 0x6c
# UVM_INFO ../tb/apb_uart_scoreboard.sv(214) @ 95610000: uvm_test_top.env.scoreboard [SB_TX] 
# Match  APB->TXDATA == UART_TX == 0x6c (bits=7)
# UVM_INFO ../apb_uvc/apb_seqs.sv(134) @ 104642000: uvm_test_top.env.apb_uvcc.agent.sequencer@@vseq_send_N_TX.single_tx_vseq.stt_seq [read_status_reg_seq] Reading UART Status Register (0x10)
# UVM_INFO ../apb_uvc/apb_driver.sv(52) @ 104690000: uvm_test_top.env.apb_uvcc.agent.driver [apb_driver] APB Transaction:
# ----------------------------------------------------------------------------------------------------------------------
# Name                           Type              Size  Value                                                          
# ----------------------------------------------------------------------------------------------------------------------
# req                            apb_transaction   -     @990                                                           
#   paddr                        integral          12    'h10                                                           
#   pwdata                       integral          32    'hcbd05040                                                     
#   pwrite                       integral          1     'h0                                                            
#   pstrb                        integral          4     'h0                                                            
#   prdata                       integral          32    'h3                                                            
#   pslverr                      integral          1     'h0X                                                           
#   addr_type                    addr_test_type_e  32    ADDR_RO                                                        
#   write_true_flase             write_quality_e   32    WRITE_ADDR_FALSE                                               
#   begin_time                   time              64    104650000                                                      
#   depth                        int               32    'd4                                                            
#   parent sequence (name)       string            7     stt_seq                                                        
#   parent sequence (full name)  string            63    uvm_test_top.env.vir_seqr.vseq_send_N_TX.single_tx_vseq.stt_seq
#   sequencer                    string            41    uvm_test_top.env.apb_uvcc.agent.sequencer                      
# ----------------------------------------------------------------------------------------------------------------------
# 
# UVM_INFO ../tb/uart_virseqs.sv(163) @ 104690000: uvm_test_top.env.vir_seqr@@vseq_send_N_TX.single_tx_vseq [VSEQ] TX_DONE Detected!
# UVM_INFO ../tb/uart_virseqs.sv(170) @ 104690000: uvm_test_top.env.vir_seqr@@vseq_send_N_TX.single_tx_vseq [VSEQ] ===  TEST COMPLETED ===
# UVM_INFO ../tb/uart_virseqs.sv(191) @ 104690000: uvm_test_top.env.vir_seqr@@vseq_send_N_TX [VSEQ_N] 
#####========================Executing FRAME 2/58...========================#####
# UVM_INFO ../tb/uart_virseqs.sv(111) @ 104690000: uvm_test_top.env.vir_seqr@@vseq_send_N_TX.single_tx_vseq [VSEQ] === STARTING  TEST: DUT -> uart UVC ===
# UVM_INFO ../tb/uart_virseqs.sv(67) @ 104690000: uvm_test_top.env.vir_seqr@@vseq_send_N_TX.single_tx_vseq.config_vseq [VSEQ] Configuring System using shared object from Test...
# UVM_INFO ../apb_uvc/apb_seqs.sv(62) @ 104690000: uvm_test_top.env.apb_uvcc.agent.sequencer@@apb_seq [APB_WR_SEQ] Writing Config to DUT: 0x00000006 
#  (DATA_7BIT, PARITY_DIS, PARITY_ODD, STOP_2BIT)
# UVM_INFO ../apb_uvc/apb_driver.sv(52) @ 104750000: uvm_test_top.env.apb_uvcc.agent.driver [apb_driver] APB Transaction:
# --------------------------------------------------------------------------------------------------------
# Name                           Type              Size  Value                                            
# --------------------------------------------------------------------------------------------------------
# req                            apb_transaction   -     @1016                                            
#   paddr                        integral          12    'h8                                              
#   pwdata                       integral          32    'h6                                              
#   pwrite                       integral          1     'h1                                              
#   pstrb                        integral          4     'h1                                              
#   prdata                       integral          32    'h0xxxxxxxx                                      
#   pslverr                      integral          1     'h0X                                             
#   addr_type                    addr_test_type_e  32    ADDR_VALID                                       
#   write_true_flase             write_quality_e   32    WRITE_ADDR_FALSE                                 
#   begin_time                   time              64    104710000                                        
#   depth                        int               32    'd2                                              
#   parent sequence (name)       string            7     apb_seq                                          
#   parent sequence (full name)  string            49    uvm_test_top.env.apb_uvcc.agent.sequencer.apb_seq
#   sequencer                    string            41    uvm_test_top.env.apb_uvcc.agent.sequencer        
# --------------------------------------------------------------------------------------------------------
# 
# UVM_INFO ../apb_uvc/apb_coverage_monitor.sv(94) @ 104750000: uvm_test_top.env.apb_uvcc.agent.monitor [MON] Updating UART Configuration
# UVM_INFO ../tb/apb_uart_scoreboard.sv(112) @ 104750000: uvm_test_top.env.scoreboard [SB_CFG_SYNC] Config updated via APB: DATA_7BIT, STOP_2BIT
# UVM_INFO ../tb/apb_uart_scoreboard.sv(335) @ 104760000: uvm_test_top.env.scoreboard [SB_CFG_HDL] 
# ============CFG Backdoor check PASSED============
# UVM_INFO ../tb/uart_virseqs.sv(82) @ 104950000: uvm_test_top.env.vir_seqr@@vseq_send_N_TX.single_tx_vseq.config_vseq [VSEQ] UART Driver remains IDLE (TX Only Mode)
# UVM_INFO ../tb/uart_virseqs.sv(40) @ 104950000: uvm_test_top.env.vir_seqr@@vseq_send_N_TX.single_tx_vseq [VSEQ] 
#####===NUM DATA BIT = DATA_7BIT, NUM STOP BIT = STOP_2BIT, PARITY EN = PARITY_DIS, PARITY TYPE = PARITY_ODD===#####
# UVM_INFO ../tb/uart_virseqs.sv(139) @ 104950000: uvm_test_top.env.vir_seqr@@vseq_send_N_TX.single_tx_vseq [VSEQ] 
#####===Calculation: Data=10 bits, Baud=115200, Tbit=8680.56ns===#####
# UVM_INFO ../apb_uvc/apb_seqs.sv(88) @ 104950000: uvm_test_top.env.apb_uvcc.agent.sequencer@@vseq_send_N_TX.single_tx_vseq.apb_write_send_seq [send_tx_data_seq] Send TX with data: 0x16
# UVM_INFO ../apb_uvc/apb_driver.sv(52) @ 105010000: uvm_test_top.env.apb_uvcc.agent.driver [apb_driver] APB Transaction:
# ---------------------------------------------------------------------------------------------------------------------------------
# Name                           Type              Size  Value                                                                     
# ---------------------------------------------------------------------------------------------------------------------------------
# req                            apb_transaction   -     @1028                                                                     
#   paddr                        integral          12    'h0                                                                       
#   pwdata                       integral          32    'h16                                                                      
#   pwrite                       integral          1     'h1                                                                       
#   pstrb                        integral          4     'h1                                                                       
#   prdata                       integral          32    'h0xxxxxxxx                                                               
#   pslverr                      integral          1     'h0X                                                                      
#   addr_type                    addr_test_type_e  32    ADDR_VALID                                                                
#   write_true_flase             write_quality_e   32    WRITE_ADDR_TRUE                                                           
#   begin_time                   time              64    104970000                                                                 
#   depth                        int               32    'd4                                                                       
#   parent sequence (name)       string            18    apb_write_send_seq                                                        
#   parent sequence (full name)  string            74    uvm_test_top.env.vir_seqr.vseq_send_N_TX.single_tx_vseq.apb_write_send_seq
#   sequencer                    string            41    uvm_test_top.env.apb_uvcc.agent.sequencer                                 
# ---------------------------------------------------------------------------------------------------------------------------------
# 
# UVM_INFO ../apb_uvc/apb_coverage_monitor.sv(93) @ 105010000: uvm_test_top.env.apb_uvcc.agent.monitor [MON] Writing TX Data: 0x16
# UVM_INFO ../tb/apb_uart_scoreboard.sv(89) @ 105010000: uvm_test_top.env.scoreboard [SB_APB] APB->TXDATA queued: 0x16
# UVM_INFO ../apb_uvc/apb_driver.sv(52) @ 105070000: uvm_test_top.env.apb_uvcc.agent.driver [apb_driver] APB Transaction:
# ---------------------------------------------------------------------------------------------------------------------------------
# Name                           Type              Size  Value                                                                     
# ---------------------------------------------------------------------------------------------------------------------------------
# req                            apb_transaction   -     @1036                                                                     
#   paddr                        integral          12    'hc                                                                       
#   pwdata                       integral          32    'h1                                                                       
#   pwrite                       integral          1     'h1                                                                       
#   pstrb                        integral          4     'h1                                                                       
#   prdata                       integral          32    'h0xxxxxxxx                                                               
#   pslverr                      integral          1     'h0X                                                                      
#   addr_type                    addr_test_type_e  32    ADDR_VALID                                                                
#   write_true_flase             write_quality_e   32    WRITE_ADDR_FALSE                                                          
#   begin_time                   time              64    105030000                                                                 
#   depth                        int               32    'd4                                                                       
#   parent sequence (name)       string            18    apb_write_send_seq                                                        
#   parent sequence (full name)  string            74    uvm_test_top.env.vir_seqr.vseq_send_N_TX.single_tx_vseq.apb_write_send_seq
#   sequencer                    string            41    uvm_test_top.env.apb_uvcc.agent.sequencer                                 
# ---------------------------------------------------------------------------------------------------------------------------------
# 
# UVM_INFO ../apb_uvc/apb_coverage_monitor.sv(95) @ 105070000: uvm_test_top.env.apb_uvcc.agent.monitor [MON] Start TX Triggered
# UVM_INFO ../tb/apb_uart_scoreboard.sv(141) @ 200010000: uvm_test_top.env.scoreboard [SB_UART] UART TX queued: 0x16
# UVM_INFO ../uart_uvc/uart_coverage_monitor.sv(189) @ 200010000: uvm_test_top.env.uart_uvcc.agent.monitor [MON_TX] DATA is monitored from TX: 0x16
# UVM_INFO ../tb/apb_uart_scoreboard.sv(214) @ 200010000: uvm_test_top.env.scoreboard [SB_TX] 
# Match  APB->TXDATA == UART_TX == 0x16 (bits=7)
# UVM_INFO ../apb_uvc/apb_seqs.sv(134) @ 209242000: uvm_test_top.env.apb_uvcc.agent.sequencer@@vseq_send_N_TX.single_tx_vseq.stt_seq [read_status_reg_seq] Reading UART Status Register (0x10)
# UVM_INFO ../apb_uvc/apb_driver.sv(52) @ 209290000: uvm_test_top.env.apb_uvcc.agent.driver [apb_driver] APB Transaction:
# ----------------------------------------------------------------------------------------------------------------------
# Name                           Type              Size  Value                                                          
# ----------------------------------------------------------------------------------------------------------------------
# req                            apb_transaction   -     @1056                                                          
#   paddr                        integral          12    'h10                                                           
#   pwdata                       integral          32    'hd0117410                                                     
#   pwrite                       integral          1     'h0                                                            
#   pstrb                        integral          4     'h1                                                            
#   prdata                       integral          32    'h3                                                            
#   pslverr                      integral          1     'h0X                                                           
#   addr_type                    addr_test_type_e  32    ADDR_RO                                                        
#   write_true_flase             write_quality_e   32    WRITE_ADDR_FALSE                                               
#   begin_time                   time              64    209250000                                                      
#   depth                        int               32    'd4                                                            
#   parent sequence (name)       string            7     stt_seq                                                        
#   parent sequence (full name)  string            63    uvm_test_top.env.vir_seqr.vseq_send_N_TX.single_tx_vseq.stt_seq
#   sequencer                    string            41    uvm_test_top.env.apb_uvcc.agent.sequencer                      
# ----------------------------------------------------------------------------------------------------------------------
# 
# UVM_INFO ../tb/uart_virseqs.sv(163) @ 209290000: uvm_test_top.env.vir_seqr@@vseq_send_N_TX.single_tx_vseq [VSEQ] TX_DONE Detected!
# UVM_INFO ../tb/uart_virseqs.sv(170) @ 209290000: uvm_test_top.env.vir_seqr@@vseq_send_N_TX.single_tx_vseq [VSEQ] ===  TEST COMPLETED ===
# UVM_INFO ../tb/uart_virseqs.sv(191) @ 209290000: uvm_test_top.env.vir_seqr@@vseq_send_N_TX [VSEQ_N] 
#####========================Executing FRAME 3/58...========================#####
# UVM_INFO ../tb/uart_virseqs.sv(111) @ 209290000: uvm_test_top.env.vir_seqr@@vseq_send_N_TX.single_tx_vseq [VSEQ] === STARTING  TEST: DUT -> uart UVC ===
# UVM_INFO ../tb/uart_virseqs.sv(67) @ 209290000: uvm_test_top.env.vir_seqr@@vseq_send_N_TX.single_tx_vseq.config_vseq [VSEQ] Configuring System using shared object from Test...
# UVM_INFO ../apb_uvc/apb_seqs.sv(62) @ 209290000: uvm_test_top.env.apb_uvcc.agent.sequencer@@apb_seq [APB_WR_SEQ] Writing Config to DUT: 0x00000006 
#  (DATA_7BIT, PARITY_DIS, PARITY_ODD, STOP_2BIT)
# UVM_INFO ../apb_uvc/apb_driver.sv(52) @ 209350000: uvm_test_top.env.apb_uvcc.agent.driver [apb_driver] APB Transaction:
# --------------------------------------------------------------------------------------------------------
# Name                           Type              Size  Value                                            
# --------------------------------------------------------------------------------------------------------
# req                            apb_transaction   -     @1082                                            
#   paddr                        integral          12    'h8                                              
#   pwdata                       integral          32    'h6                                              
#   pwrite                       integral          1     'h1                                              
#   pstrb                        integral          4     'h1                                              
#   prdata                       integral          32    'h0xxxxxxxx                                      
#   pslverr                      integral          1     'h0X                                             
#   addr_type                    addr_test_type_e  32    ADDR_VALID                                       
#   write_true_flase             write_quality_e   32    WRITE_ADDR_TRUE                                  
#   begin_time                   time              64    209310000                                        
#   depth                        int               32    'd2                                              
#   parent sequence (name)       string            7     apb_seq                                          
#   parent sequence (full name)  string            49    uvm_test_top.env.apb_uvcc.agent.sequencer.apb_seq
#   sequencer                    string            41    uvm_test_top.env.apb_uvcc.agent.sequencer        
# --------------------------------------------------------------------------------------------------------
# 
# UVM_INFO ../apb_uvc/apb_coverage_monitor.sv(94) @ 209350000: uvm_test_top.env.apb_uvcc.agent.monitor [MON] Updating UART Configuration
# UVM_INFO ../tb/apb_uart_scoreboard.sv(112) @ 209350000: uvm_test_top.env.scoreboard [SB_CFG_SYNC] Config updated via APB: DATA_7BIT, STOP_2BIT
# UVM_INFO ../tb/apb_uart_scoreboard.sv(335) @ 209360000: uvm_test_top.env.scoreboard [SB_CFG_HDL] 
# ============CFG Backdoor check PASSED============
# UVM_INFO ../tb/uart_virseqs.sv(82) @ 209550000: uvm_test_top.env.vir_seqr@@vseq_send_N_TX.single_tx_vseq.config_vseq [VSEQ] UART Driver remains IDLE (TX Only Mode)
# UVM_INFO ../tb/uart_virseqs.sv(40) @ 209550000: uvm_test_top.env.vir_seqr@@vseq_send_N_TX.single_tx_vseq [VSEQ] 
#####===NUM DATA BIT = DATA_7BIT, NUM STOP BIT = STOP_2BIT, PARITY EN = PARITY_DIS, PARITY TYPE = PARITY_ODD===#####
# UVM_INFO ../tb/uart_virseqs.sv(139) @ 209550000: uvm_test_top.env.vir_seqr@@vseq_send_N_TX.single_tx_vseq [VSEQ] 
#####===Calculation: Data=10 bits, Baud=115200, Tbit=8680.56ns===#####
# UVM_INFO ../apb_uvc/apb_seqs.sv(88) @ 209550000: uvm_test_top.env.apb_uvcc.agent.sequencer@@vseq_send_N_TX.single_tx_vseq.apb_write_send_seq [send_tx_data_seq] Send TX with data: 0x42
# UVM_INFO ../apb_uvc/apb_driver.sv(52) @ 209610000: uvm_test_top.env.apb_uvcc.agent.driver [apb_driver] APB Transaction:
# ---------------------------------------------------------------------------------------------------------------------------------
# Name                           Type              Size  Value                                                                     
# ---------------------------------------------------------------------------------------------------------------------------------
# req                            apb_transaction   -     @1094                                                                     
#   paddr                        integral          12    'h0                                                                       
#   pwdata                       integral          32    'h42                                                                      
#   pwrite                       integral          1     'h1                                                                       
#   pstrb                        integral          4     'h1                                                                       
#   prdata                       integral          32    'h0xxxxxxxx                                                               
#   pslverr                      integral          1     'h0X                                                                      
#   addr_type                    addr_test_type_e  32    ADDR_VALID                                                                
#   write_true_flase             write_quality_e   32    WRITE_ADDR_FALSE                                                          
#   begin_time                   time              64    209570000                                                                 
#   depth                        int               32    'd4                                                                       
#   parent sequence (name)       string            18    apb_write_send_seq                                                        
#   parent sequence (full name)  string            74    uvm_test_top.env.vir_seqr.vseq_send_N_TX.single_tx_vseq.apb_write_send_seq
#   sequencer                    string            41    uvm_test_top.env.apb_uvcc.agent.sequencer                                 
# ---------------------------------------------------------------------------------------------------------------------------------
# 
# UVM_INFO ../apb_uvc/apb_coverage_monitor.sv(93) @ 209610000: uvm_test_top.env.apb_uvcc.agent.monitor [MON] Writing TX Data: 0x42
# UVM_INFO ../tb/apb_uart_scoreboard.sv(89) @ 209610000: uvm_test_top.env.scoreboard [SB_APB] APB->TXDATA queued: 0x42
# UVM_INFO ../apb_uvc/apb_driver.sv(52) @ 209670000: uvm_test_top.env.apb_uvcc.agent.driver [apb_driver] APB Transaction:
# ---------------------------------------------------------------------------------------------------------------------------------
# Name                           Type              Size  Value                                                                     
# ---------------------------------------------------------------------------------------------------------------------------------
# req                            apb_transaction   -     @1102                                                                     
#   paddr                        integral          12    'hc                                                                       
#   pwdata                       integral          32    'h1                                                                       
#   pwrite                       integral          1     'h1                                                                       
#   pstrb                        integral          4     'h1                                                                       
#   prdata                       integral          32    'h0xxxxxxxx                                                               
#   pslverr                      integral          1     'h0X                                                                      
#   addr_type                    addr_test_type_e  32    ADDR_VALID                                                                
#   write_true_flase             write_quality_e   32    WRITE_ADDR_FALSE                                                          
#   begin_time                   time              64    209630000                                                                 
#   depth                        int               32    'd4                                                                       
#   parent sequence (name)       string            18    apb_write_send_seq                                                        
#   parent sequence (full name)  string            74    uvm_test_top.env.vir_seqr.vseq_send_N_TX.single_tx_vseq.apb_write_send_seq
#   sequencer                    string            41    uvm_test_top.env.apb_uvcc.agent.sequencer                                 
# ---------------------------------------------------------------------------------------------------------------------------------
# 
# UVM_INFO ../apb_uvc/apb_coverage_monitor.sv(95) @ 209670000: uvm_test_top.env.apb_uvcc.agent.monitor [MON] Start TX Triggered
# UVM_INFO ../tb/apb_uart_scoreboard.sv(141) @ 304410000: uvm_test_top.env.scoreboard [SB_UART] UART TX queued: 0x42
# UVM_INFO ../uart_uvc/uart_coverage_monitor.sv(189) @ 304410000: uvm_test_top.env.uart_uvcc.agent.monitor [MON_TX] DATA is monitored from TX: 0x42
# UVM_INFO ../tb/apb_uart_scoreboard.sv(214) @ 304410000: uvm_test_top.env.scoreboard [SB_TX] 
# Match  APB->TXDATA == UART_TX == 0x42 (bits=7)
# UVM_INFO ../apb_uvc/apb_seqs.sv(134) @ 313842000: uvm_test_top.env.apb_uvcc.agent.sequencer@@vseq_send_N_TX.single_tx_vseq.stt_seq [read_status_reg_seq] Reading UART Status Register (0x10)
# UVM_INFO ../apb_uvc/apb_driver.sv(52) @ 313890000: uvm_test_top.env.apb_uvcc.agent.driver [apb_driver] APB Transaction:
# ----------------------------------------------------------------------------------------------------------------------
# Name                           Type              Size  Value                                                          
# ----------------------------------------------------------------------------------------------------------------------
# req                            apb_transaction   -     @1122                                                          
#   paddr                        integral          12    'h10                                                           
#   pwdata                       integral          32    'h8728255f                                                     
#   pwrite                       integral          1     'h0                                                            
#   pstrb                        integral          4     'h0                                                            
#   prdata                       integral          32    'h3                                                            
#   pslverr                      integral          1     'h0X                                                           
#   addr_type                    addr_test_type_e  32    ADDR_RO                                                        
#   write_true_flase             write_quality_e   32    WRITE_ADDR_TRUE                                                
#   begin_time                   time              64    313850000                                                      
#   depth                        int               32    'd4                                                            
#   parent sequence (name)       string            7     stt_seq                                                        
#   parent sequence (full name)  string            63    uvm_test_top.env.vir_seqr.vseq_send_N_TX.single_tx_vseq.stt_seq
#   sequencer                    string            41    uvm_test_top.env.apb_uvcc.agent.sequencer                      
# ----------------------------------------------------------------------------------------------------------------------
# 
# UVM_INFO ../tb/uart_virseqs.sv(163) @ 313890000: uvm_test_top.env.vir_seqr@@vseq_send_N_TX.single_tx_vseq [VSEQ] TX_DONE Detected!
# UVM_INFO ../tb/uart_virseqs.sv(170) @ 313890000: uvm_test_top.env.vir_seqr@@vseq_send_N_TX.single_tx_vseq [VSEQ] ===  TEST COMPLETED ===
# UVM_INFO ../tb/uart_virseqs.sv(191) @ 313890000: uvm_test_top.env.vir_seqr@@vseq_send_N_TX [VSEQ_N] 
#####========================Executing FRAME 4/58...========================#####
# UVM_INFO ../tb/uart_virseqs.sv(111) @ 313890000: uvm_test_top.env.vir_seqr@@vseq_send_N_TX.single_tx_vseq [VSEQ] === STARTING  TEST: DUT -> uart UVC ===
# UVM_INFO ../tb/uart_virseqs.sv(67) @ 313890000: uvm_test_top.env.vir_seqr@@vseq_send_N_TX.single_tx_vseq.config_vseq [VSEQ] Configuring System using shared object from Test...
# UVM_INFO ../apb_uvc/apb_seqs.sv(62) @ 313890000: uvm_test_top.env.apb_uvcc.agent.sequencer@@apb_seq [APB_WR_SEQ] Writing Config to DUT: 0x00000006 
#  (DATA_7BIT, PARITY_DIS, PARITY_ODD, STOP_2BIT)
# UVM_INFO ../apb_uvc/apb_driver.sv(52) @ 313950000: uvm_test_top.env.apb_uvcc.agent.driver [apb_driver] APB Transaction:
# --------------------------------------------------------------------------------------------------------
# Name                           Type              Size  Value                                            
# --------------------------------------------------------------------------------------------------------
# req                            apb_transaction   -     @1148                                            
#   paddr                        integral          12    'h8                                              
#   pwdata                       integral          32    'h6                                              
#   pwrite                       integral          1     'h1                                              
#   pstrb                        integral          4     'h1                                              
#   prdata                       integral          32    'h0xxxxxxxx                                      
#   pslverr                      integral          1     'h0X                                             
#   addr_type                    addr_test_type_e  32    ADDR_VALID                                       
#   write_true_flase             write_quality_e   32    WRITE_ADDR_TRUE                                  
#   begin_time                   time              64    313910000                                        
#   depth                        int               32    'd2                                              
#   parent sequence (name)       string            7     apb_seq                                          
#   parent sequence (full name)  string            49    uvm_test_top.env.apb_uvcc.agent.sequencer.apb_seq
#   sequencer                    string            41    uvm_test_top.env.apb_uvcc.agent.sequencer        
# --------------------------------------------------------------------------------------------------------
# 
# UVM_INFO ../apb_uvc/apb_coverage_monitor.sv(94) @ 313950000: uvm_test_top.env.apb_uvcc.agent.monitor [MON] Updating UART Configuration
# UVM_INFO ../tb/apb_uart_scoreboard.sv(112) @ 313950000: uvm_test_top.env.scoreboard [SB_CFG_SYNC] Config updated via APB: DATA_7BIT, STOP_2BIT
# UVM_INFO ../tb/apb_uart_scoreboard.sv(335) @ 313960000: uvm_test_top.env.scoreboard [SB_CFG_HDL] 
# ============CFG Backdoor check PASSED============
# UVM_INFO ../tb/uart_virseqs.sv(82) @ 314150000: uvm_test_top.env.vir_seqr@@vseq_send_N_TX.single_tx_vseq.config_vseq [VSEQ] UART Driver remains IDLE (TX Only Mode)
# UVM_INFO ../tb/uart_virseqs.sv(40) @ 314150000: uvm_test_top.env.vir_seqr@@vseq_send_N_TX.single_tx_vseq [VSEQ] 
#####===NUM DATA BIT = DATA_7BIT, NUM STOP BIT = STOP_2BIT, PARITY EN = PARITY_DIS, PARITY TYPE = PARITY_ODD===#####
# UVM_INFO ../tb/uart_virseqs.sv(139) @ 314150000: uvm_test_top.env.vir_seqr@@vseq_send_N_TX.single_tx_vseq [VSEQ] 
#####===Calculation: Data=10 bits, Baud=115200, Tbit=8680.56ns===#####
# UVM_INFO ../apb_uvc/apb_seqs.sv(88) @ 314150000: uvm_test_top.env.apb_uvcc.agent.sequencer@@vseq_send_N_TX.single_tx_vseq.apb_write_send_seq [send_tx_data_seq] Send TX with data: 0x1d
# UVM_INFO ../apb_uvc/apb_driver.sv(52) @ 314210000: uvm_test_top.env.apb_uvcc.agent.driver [apb_driver] APB Transaction:
# ---------------------------------------------------------------------------------------------------------------------------------
# Name                           Type              Size  Value                                                                     
# ---------------------------------------------------------------------------------------------------------------------------------
# req                            apb_transaction   -     @1160                                                                     
#   paddr                        integral          12    'h0                                                                       
#   pwdata                       integral          32    'h1d                                                                      
#   pwrite                       integral          1     'h1                                                                       
#   pstrb                        integral          4     'h1                                                                       
#   prdata                       integral          32    'h0xxxxxxxx                                                               
#   pslverr                      integral          1     'h0X                                                                      
#   addr_type                    addr_test_type_e  32    ADDR_VALID                                                                
#   write_true_flase             write_quality_e   32    WRITE_ADDR_FALSE                                                          
#   begin_time                   time              64    314170000                                                                 
#   depth                        int               32    'd4                                                                       
#   parent sequence (name)       string            18    apb_write_send_seq                                                        
#   parent sequence (full name)  string            74    uvm_test_top.env.vir_seqr.vseq_send_N_TX.single_tx_vseq.apb_write_send_seq
#   sequencer                    string            41    uvm_test_top.env.apb_uvcc.agent.sequencer                                 
# ---------------------------------------------------------------------------------------------------------------------------------
# 
# UVM_INFO ../apb_uvc/apb_coverage_monitor.sv(93) @ 314210000: uvm_test_top.env.apb_uvcc.agent.monitor [MON] Writing TX Data: 0x1d
# UVM_INFO ../tb/apb_uart_scoreboard.sv(89) @ 314210000: uvm_test_top.env.scoreboard [SB_APB] APB->TXDATA queued: 0x1d
# UVM_INFO ../apb_uvc/apb_driver.sv(52) @ 314270000: uvm_test_top.env.apb_uvcc.agent.driver [apb_driver] APB Transaction:
# ---------------------------------------------------------------------------------------------------------------------------------
# Name                           Type              Size  Value                                                                     
# ---------------------------------------------------------------------------------------------------------------------------------
# req                            apb_transaction   -     @1168                                                                     
#   paddr                        integral          12    'hc                                                                       
#   pwdata                       integral          32    'h1                                                                       
#   pwrite                       integral          1     'h1                                                                       
#   pstrb                        integral          4     'h1                                                                       
#   prdata                       integral          32    'h0xxxxxxxx                                                               
#   pslverr                      integral          1     'h0X                                                                      
#   addr_type                    addr_test_type_e  32    ADDR_VALID                                                                
#   write_true_flase             write_quality_e   32    WRITE_ADDR_FALSE                                                          
#   begin_time                   time              64    314230000                                                                 
#   depth                        int               32    'd4                                                                       
#   parent sequence (name)       string            18    apb_write_send_seq                                                        
#   parent sequence (full name)  string            74    uvm_test_top.env.vir_seqr.vseq_send_N_TX.single_tx_vseq.apb_write_send_seq
#   sequencer                    string            41    uvm_test_top.env.apb_uvcc.agent.sequencer                                 
# ---------------------------------------------------------------------------------------------------------------------------------
# 
# UVM_INFO ../apb_uvc/apb_coverage_monitor.sv(95) @ 314270000: uvm_test_top.env.apb_uvcc.agent.monitor [MON] Start TX Triggered
# UVM_INFO ../tb/apb_uart_scoreboard.sv(141) @ 408810000: uvm_test_top.env.scoreboard [SB_UART] UART TX queued: 0x1d
# UVM_INFO ../uart_uvc/uart_coverage_monitor.sv(189) @ 408810000: uvm_test_top.env.uart_uvcc.agent.monitor [MON_TX] DATA is monitored from TX: 0x1d
# UVM_INFO ../tb/apb_uart_scoreboard.sv(214) @ 408810000: uvm_test_top.env.scoreboard [SB_TX] 
# Match  APB->TXDATA == UART_TX == 0x1d (bits=7)
# UVM_INFO ../apb_uvc/apb_seqs.sv(134) @ 418442000: uvm_test_top.env.apb_uvcc.agent.sequencer@@vseq_send_N_TX.single_tx_vseq.stt_seq [read_status_reg_seq] Reading UART Status Register (0x10)
# UVM_INFO ../apb_uvc/apb_driver.sv(52) @ 418490000: uvm_test_top.env.apb_uvcc.agent.driver [apb_driver] APB Transaction:
# ----------------------------------------------------------------------------------------------------------------------
# Name                           Type              Size  Value                                                          
# ----------------------------------------------------------------------------------------------------------------------
# req                            apb_transaction   -     @1188                                                          
#   paddr                        integral          12    'h10                                                           
#   pwdata                       integral          32    'h704fc9b3                                                     
#   pwrite                       integral          1     'h0                                                            
#   pstrb                        integral          4     'h0                                                            
#   prdata                       integral          32    'h3                                                            
#   pslverr                      integral          1     'h0X                                                           
#   addr_type                    addr_test_type_e  32    ADDR_RO                                                        
#   write_true_flase             write_quality_e   32    WRITE_ADDR_TRUE                                                
#   begin_time                   time              64    418450000                                                      
#   depth                        int               32    'd4                                                            
#   parent sequence (name)       string            7     stt_seq                                                        
#   parent sequence (full name)  string            63    uvm_test_top.env.vir_seqr.vseq_send_N_TX.single_tx_vseq.stt_seq
#   sequencer                    string            41    uvm_test_top.env.apb_uvcc.agent.sequencer                      
# ----------------------------------------------------------------------------------------------------------------------
# 
# UVM_INFO ../tb/uart_virseqs.sv(163) @ 418490000: uvm_test_top.env.vir_seqr@@vseq_send_N_TX.single_tx_vseq [VSEQ] TX_DONE Detected!
# UVM_INFO ../tb/uart_virseqs.sv(170) @ 418490000: uvm_test_top.env.vir_seqr@@vseq_send_N_TX.single_tx_vseq [VSEQ] ===  TEST COMPLETED ===
# UVM_INFO ../tb/uart_virseqs.sv(191) @ 418490000: uvm_test_top.env.vir_seqr@@vseq_send_N_TX [VSEQ_N] 
#####========================Executing FRAME 5/58...========================#####
# UVM_INFO ../tb/uart_virseqs.sv(111) @ 418490000: uvm_test_top.env.vir_seqr@@vseq_send_N_TX.single_tx_vseq [VSEQ] === STARTING  TEST: DUT -> uart UVC ===
# UVM_INFO ../tb/uart_virseqs.sv(67) @ 418490000: uvm_test_top.env.vir_seqr@@vseq_send_N_TX.single_tx_vseq.config_vseq [VSEQ] Configuring System using shared object from Test...
# UVM_INFO ../apb_uvc/apb_seqs.sv(62) @ 418490000: uvm_test_top.env.apb_uvcc.agent.sequencer@@apb_seq [APB_WR_SEQ] Writing Config to DUT: 0x00000006 
#  (DATA_7BIT, PARITY_DIS, PARITY_ODD, STOP_2BIT)
# UVM_INFO ../apb_uvc/apb_driver.sv(52) @ 418550000: uvm_test_top.env.apb_uvcc.agent.driver [apb_driver] APB Transaction:
# --------------------------------------------------------------------------------------------------------
# Name                           Type              Size  Value                                            
# --------------------------------------------------------------------------------------------------------
# req                            apb_transaction   -     @1214                                            
#   paddr                        integral          12    'h8                                              
#   pwdata                       integral          32    'h6                                              
#   pwrite                       integral          1     'h1                                              
#   pstrb                        integral          4     'h1                                              
#   prdata                       integral          32    'h0xxxxxxxx                                      
#   pslverr                      integral          1     'h0X                                             
#   addr_type                    addr_test_type_e  32    ADDR_VALID                                       
#   write_true_flase             write_quality_e   32    WRITE_ADDR_FALSE                                 
#   begin_time                   time              64    418510000                                        
#   depth                        int               32    'd2                                              
#   parent sequence (name)       string            7     apb_seq                                          
#   parent sequence (full name)  string            49    uvm_test_top.env.apb_uvcc.agent.sequencer.apb_seq
#   sequencer                    string            41    uvm_test_top.env.apb_uvcc.agent.sequencer        
# --------------------------------------------------------------------------------------------------------
# 
# UVM_INFO ../apb_uvc/apb_coverage_monitor.sv(94) @ 418550000: uvm_test_top.env.apb_uvcc.agent.monitor [MON] Updating UART Configuration
# UVM_INFO ../tb/apb_uart_scoreboard.sv(112) @ 418550000: uvm_test_top.env.scoreboard [SB_CFG_SYNC] Config updated via APB: DATA_7BIT, STOP_2BIT
# UVM_INFO ../tb/apb_uart_scoreboard.sv(335) @ 418560000: uvm_test_top.env.scoreboard [SB_CFG_HDL] 
# ============CFG Backdoor check PASSED============
# UVM_INFO ../tb/uart_virseqs.sv(82) @ 418750000: uvm_test_top.env.vir_seqr@@vseq_send_N_TX.single_tx_vseq.config_vseq [VSEQ] UART Driver remains IDLE (TX Only Mode)
# UVM_INFO ../tb/uart_virseqs.sv(40) @ 418750000: uvm_test_top.env.vir_seqr@@vseq_send_N_TX.single_tx_vseq [VSEQ] 
#####===NUM DATA BIT = DATA_7BIT, NUM STOP BIT = STOP_2BIT, PARITY EN = PARITY_DIS, PARITY TYPE = PARITY_ODD===#####
# UVM_INFO ../tb/uart_virseqs.sv(139) @ 418750000: uvm_test_top.env.vir_seqr@@vseq_send_N_TX.single_tx_vseq [VSEQ] 
#####===Calculation: Data=10 bits, Baud=115200, Tbit=8680.56ns===#####
# UVM_INFO ../apb_uvc/apb_seqs.sv(88) @ 418750000: uvm_test_top.env.apb_uvcc.agent.sequencer@@vseq_send_N_TX.single_tx_vseq.apb_write_send_seq [send_tx_data_seq] Send TX with data: 0x16
# UVM_INFO ../apb_uvc/apb_driver.sv(52) @ 418810000: uvm_test_top.env.apb_uvcc.agent.driver [apb_driver] APB Transaction:
# ---------------------------------------------------------------------------------------------------------------------------------
# Name                           Type              Size  Value                                                                     
# ---------------------------------------------------------------------------------------------------------------------------------
# req                            apb_transaction   -     @1226                                                                     
#   paddr                        integral          12    'h0                                                                       
#   pwdata                       integral          32    'h16                                                                      
#   pwrite                       integral          1     'h1                                                                       
#   pstrb                        integral          4     'h1                                                                       
#   prdata                       integral          32    'h0xxxxxxxx                                                               
#   pslverr                      integral          1     'h0X                                                                      
#   addr_type                    addr_test_type_e  32    ADDR_VALID                                                                
#   write_true_flase             write_quality_e   32    WRITE_ADDR_FALSE                                                          
#   begin_time                   time              64    418770000                                                                 
#   depth                        int               32    'd4                                                                       
#   parent sequence (name)       string            18    apb_write_send_seq                                                        
#   parent sequence (full name)  string            74    uvm_test_top.env.vir_seqr.vseq_send_N_TX.single_tx_vseq.apb_write_send_seq
#   sequencer                    string            41    uvm_test_top.env.apb_uvcc.agent.sequencer                                 
# ---------------------------------------------------------------------------------------------------------------------------------
# 
# UVM_INFO ../apb_uvc/apb_coverage_monitor.sv(93) @ 418810000: uvm_test_top.env.apb_uvcc.agent.monitor [MON] Writing TX Data: 0x16
# UVM_INFO ../tb/apb_uart_scoreboard.sv(89) @ 418810000: uvm_test_top.env.scoreboard [SB_APB] APB->TXDATA queued: 0x16
# UVM_INFO ../apb_uvc/apb_driver.sv(52) @ 418870000: uvm_test_top.env.apb_uvcc.agent.driver [apb_driver] APB Transaction:
# ---------------------------------------------------------------------------------------------------------------------------------
# Name                           Type              Size  Value                                                                     
# ---------------------------------------------------------------------------------------------------------------------------------
# req                            apb_transaction   -     @1234                                                                     
#   paddr                        integral          12    'hc                                                                       
#   pwdata                       integral          32    'h1                                                                       
#   pwrite                       integral          1     'h1                                                                       
#   pstrb                        integral          4     'h1                                                                       
#   prdata                       integral          32    'h0xxxxxxxx                                                               
#   pslverr                      integral          1     'h0X                                                                      
#   addr_type                    addr_test_type_e  32    ADDR_VALID                                                                
#   write_true_flase             write_quality_e   32    WRITE_ADDR_TRUE                                                           
#   begin_time                   time              64    418830000                                                                 
#   depth                        int               32    'd4                                                                       
#   parent sequence (name)       string            18    apb_write_send_seq                                                        
#   parent sequence (full name)  string            74    uvm_test_top.env.vir_seqr.vseq_send_N_TX.single_tx_vseq.apb_write_send_seq
#   sequencer                    string            41    uvm_test_top.env.apb_uvcc.agent.sequencer                                 
# ---------------------------------------------------------------------------------------------------------------------------------
# 
# UVM_INFO ../apb_uvc/apb_coverage_monitor.sv(95) @ 418870000: uvm_test_top.env.apb_uvcc.agent.monitor [MON] Start TX Triggered
# UVM_INFO ../tb/apb_uart_scoreboard.sv(141) @ 513210000: uvm_test_top.env.scoreboard [SB_UART] UART TX queued: 0x16
# UVM_INFO ../uart_uvc/uart_coverage_monitor.sv(189) @ 513210000: uvm_test_top.env.uart_uvcc.agent.monitor [MON_TX] DATA is monitored from TX: 0x16
# UVM_INFO ../tb/apb_uart_scoreboard.sv(214) @ 513210000: uvm_test_top.env.scoreboard [SB_TX] 
# Match  APB->TXDATA == UART_TX == 0x16 (bits=7)
# UVM_INFO ../apb_uvc/apb_seqs.sv(134) @ 523042000: uvm_test_top.env.apb_uvcc.agent.sequencer@@vseq_send_N_TX.single_tx_vseq.stt_seq [read_status_reg_seq] Reading UART Status Register (0x10)
# UVM_INFO ../apb_uvc/apb_driver.sv(52) @ 523090000: uvm_test_top.env.apb_uvcc.agent.driver [apb_driver] APB Transaction:
# ----------------------------------------------------------------------------------------------------------------------
# Name                           Type              Size  Value                                                          
# ----------------------------------------------------------------------------------------------------------------------
# req                            apb_transaction   -     @1254                                                          
#   paddr                        integral          12    'h10                                                           
#   pwdata                       integral          32    'h7ae4a559                                                     
#   pwrite                       integral          1     'h0                                                            
#   pstrb                        integral          4     'h0                                                            
#   prdata                       integral          32    'h3                                                            
#   pslverr                      integral          1     'h0X                                                           
#   addr_type                    addr_test_type_e  32    ADDR_RO                                                        
#   write_true_flase             write_quality_e   32    WRITE_ADDR_TRUE                                                
#   begin_time                   time              64    523050000                                                      
#   depth                        int               32    'd4                                                            
#   parent sequence (name)       string            7     stt_seq                                                        
#   parent sequence (full name)  string            63    uvm_test_top.env.vir_seqr.vseq_send_N_TX.single_tx_vseq.stt_seq
#   sequencer                    string            41    uvm_test_top.env.apb_uvcc.agent.sequencer                      
# ----------------------------------------------------------------------------------------------------------------------
# 
# UVM_INFO ../tb/uart_virseqs.sv(163) @ 523090000: uvm_test_top.env.vir_seqr@@vseq_send_N_TX.single_tx_vseq [VSEQ] TX_DONE Detected!
# UVM_INFO ../tb/uart_virseqs.sv(170) @ 523090000: uvm_test_top.env.vir_seqr@@vseq_send_N_TX.single_tx_vseq [VSEQ] ===  TEST COMPLETED ===
# UVM_INFO ../tb/uart_virseqs.sv(191) @ 523090000: uvm_test_top.env.vir_seqr@@vseq_send_N_TX [VSEQ_N] 
#####========================Executing FRAME 6/58...========================#####
# UVM_INFO ../tb/uart_virseqs.sv(111) @ 523090000: uvm_test_top.env.vir_seqr@@vseq_send_N_TX.single_tx_vseq [VSEQ] === STARTING  TEST: DUT -> uart UVC ===
# UVM_INFO ../tb/uart_virseqs.sv(67) @ 523090000: uvm_test_top.env.vir_seqr@@vseq_send_N_TX.single_tx_vseq.config_vseq [VSEQ] Configuring System using shared object from Test...
# UVM_INFO ../apb_uvc/apb_seqs.sv(62) @ 523090000: uvm_test_top.env.apb_uvcc.agent.sequencer@@apb_seq [APB_WR_SEQ] Writing Config to DUT: 0x00000006 
#  (DATA_7BIT, PARITY_DIS, PARITY_ODD, STOP_2BIT)
# UVM_INFO ../apb_uvc/apb_driver.sv(52) @ 523150000: uvm_test_top.env.apb_uvcc.agent.driver [apb_driver] APB Transaction:
# --------------------------------------------------------------------------------------------------------
# Name                           Type              Size  Value                                            
# --------------------------------------------------------------------------------------------------------
# req                            apb_transaction   -     @1280                                            
#   paddr                        integral          12    'h8                                              
#   pwdata                       integral          32    'h6                                              
#   pwrite                       integral          1     'h1                                              
#   pstrb                        integral          4     'h1                                              
#   prdata                       integral          32    'h0xxxxxxxx                                      
#   pslverr                      integral          1     'h0X                                             
#   addr_type                    addr_test_type_e  32    ADDR_VALID                                       
#   write_true_flase             write_quality_e   32    WRITE_ADDR_TRUE                                  
#   begin_time                   time              64    523110000                                        
#   depth                        int               32    'd2                                              
#   parent sequence (name)       string            7     apb_seq                                          
#   parent sequence (full name)  string            49    uvm_test_top.env.apb_uvcc.agent.sequencer.apb_seq
#   sequencer                    string            41    uvm_test_top.env.apb_uvcc.agent.sequencer        
# --------------------------------------------------------------------------------------------------------
# 
# UVM_INFO ../apb_uvc/apb_coverage_monitor.sv(94) @ 523150000: uvm_test_top.env.apb_uvcc.agent.monitor [MON] Updating UART Configuration
# UVM_INFO ../tb/apb_uart_scoreboard.sv(112) @ 523150000: uvm_test_top.env.scoreboard [SB_CFG_SYNC] Config updated via APB: DATA_7BIT, STOP_2BIT
# UVM_INFO ../tb/apb_uart_scoreboard.sv(335) @ 523160000: uvm_test_top.env.scoreboard [SB_CFG_HDL] 
# ============CFG Backdoor check PASSED============
# UVM_INFO ../tb/uart_virseqs.sv(82) @ 523350000: uvm_test_top.env.vir_seqr@@vseq_send_N_TX.single_tx_vseq.config_vseq [VSEQ] UART Driver remains IDLE (TX Only Mode)
# UVM_INFO ../tb/uart_virseqs.sv(40) @ 523350000: uvm_test_top.env.vir_seqr@@vseq_send_N_TX.single_tx_vseq [VSEQ] 
#####===NUM DATA BIT = DATA_7BIT, NUM STOP BIT = STOP_2BIT, PARITY EN = PARITY_DIS, PARITY TYPE = PARITY_ODD===#####
# UVM_INFO ../tb/uart_virseqs.sv(139) @ 523350000: uvm_test_top.env.vir_seqr@@vseq_send_N_TX.single_tx_vseq [VSEQ] 
#####===Calculation: Data=10 bits, Baud=115200, Tbit=8680.56ns===#####
# UVM_INFO ../apb_uvc/apb_seqs.sv(88) @ 523350000: uvm_test_top.env.apb_uvcc.agent.sequencer@@vseq_send_N_TX.single_tx_vseq.apb_write_send_seq [send_tx_data_seq] Send TX with data: 0x8
# UVM_INFO ../apb_uvc/apb_driver.sv(52) @ 523410000: uvm_test_top.env.apb_uvcc.agent.driver [apb_driver] APB Transaction:
# ---------------------------------------------------------------------------------------------------------------------------------
# Name                           Type              Size  Value                                                                     
# ---------------------------------------------------------------------------------------------------------------------------------
# req                            apb_transaction   -     @1292                                                                     
#   paddr                        integral          12    'h0                                                                       
#   pwdata                       integral          32    'h8                                                                       
#   pwrite                       integral          1     'h1                                                                       
#   pstrb                        integral          4     'h1                                                                       
#   prdata                       integral          32    'h0xxxxxxxx                                                               
#   pslverr                      integral          1     'h0X                                                                      
#   addr_type                    addr_test_type_e  32    ADDR_VALID                                                                
#   write_true_flase             write_quality_e   32    WRITE_ADDR_TRUE                                                           
#   begin_time                   time              64    523370000                                                                 
#   depth                        int               32    'd4                                                                       
#   parent sequence (name)       string            18    apb_write_send_seq                                                        
#   parent sequence (full name)  string            74    uvm_test_top.env.vir_seqr.vseq_send_N_TX.single_tx_vseq.apb_write_send_seq
#   sequencer                    string            41    uvm_test_top.env.apb_uvcc.agent.sequencer                                 
# ---------------------------------------------------------------------------------------------------------------------------------
# 
# UVM_INFO ../apb_uvc/apb_coverage_monitor.sv(93) @ 523410000: uvm_test_top.env.apb_uvcc.agent.monitor [MON] Writing TX Data: 0x08
# UVM_INFO ../tb/apb_uart_scoreboard.sv(89) @ 523410000: uvm_test_top.env.scoreboard [SB_APB] APB->TXDATA queued: 0x08
# UVM_INFO ../apb_uvc/apb_driver.sv(52) @ 523470000: uvm_test_top.env.apb_uvcc.agent.driver [apb_driver] APB Transaction:
# ---------------------------------------------------------------------------------------------------------------------------------
# Name                           Type              Size  Value                                                                     
# ---------------------------------------------------------------------------------------------------------------------------------
# req                            apb_transaction   -     @1300                                                                     
#   paddr                        integral          12    'hc                                                                       
#   pwdata                       integral          32    'h1                                                                       
#   pwrite                       integral          1     'h1                                                                       
#   pstrb                        integral          4     'h1                                                                       
#   prdata                       integral          32    'h0xxxxxxxx                                                               
#   pslverr                      integral          1     'h0X                                                                      
#   addr_type                    addr_test_type_e  32    ADDR_VALID                                                                
#   write_true_flase             write_quality_e   32    WRITE_ADDR_TRUE                                                           
#   begin_time                   time              64    523430000                                                                 
#   depth                        int               32    'd4                                                                       
#   parent sequence (name)       string            18    apb_write_send_seq                                                        
#   parent sequence (full name)  string            74    uvm_test_top.env.vir_seqr.vseq_send_N_TX.single_tx_vseq.apb_write_send_seq
#   sequencer                    string            41    uvm_test_top.env.apb_uvcc.agent.sequencer                                 
# ---------------------------------------------------------------------------------------------------------------------------------
# 
# UVM_INFO ../apb_uvc/apb_coverage_monitor.sv(95) @ 523470000: uvm_test_top.env.apb_uvcc.agent.monitor [MON] Start TX Triggered
# UVM_INFO ../tb/apb_uart_scoreboard.sv(141) @ 617610000: uvm_test_top.env.scoreboard [SB_UART] UART TX queued: 0x08
# UVM_INFO ../uart_uvc/uart_coverage_monitor.sv(189) @ 617610000: uvm_test_top.env.uart_uvcc.agent.monitor [MON_TX] DATA is monitored from TX: 0x08
# UVM_INFO ../tb/apb_uart_scoreboard.sv(214) @ 617610000: uvm_test_top.env.scoreboard [SB_TX] 
# Match  APB->TXDATA == UART_TX == 0x08 (bits=7)
# UVM_INFO ../apb_uvc/apb_seqs.sv(134) @ 627642000: uvm_test_top.env.apb_uvcc.agent.sequencer@@vseq_send_N_TX.single_tx_vseq.stt_seq [read_status_reg_seq] Reading UART Status Register (0x10)
# UVM_INFO ../apb_uvc/apb_driver.sv(52) @ 627690000: uvm_test_top.env.apb_uvcc.agent.driver [apb_driver] APB Transaction:
# ----------------------------------------------------------------------------------------------------------------------
# Name                           Type              Size  Value                                                          
# ----------------------------------------------------------------------------------------------------------------------
# req                            apb_transaction   -     @1320                                                          
#   paddr                        integral          12    'h10                                                           
#   pwdata                       integral          32    'h42c9d421                                                     
#   pwrite                       integral          1     'h0                                                            
#   pstrb                        integral          4     'h1                                                            
#   prdata                       integral          32    'h3                                                            
#   pslverr                      integral          1     'h0X                                                           
#   addr_type                    addr_test_type_e  32    ADDR_RO                                                        
#   write_true_flase             write_quality_e   32    WRITE_ADDR_FALSE                                               
#   begin_time                   time              64    627650000                                                      
#   depth                        int               32    'd4                                                            
#   parent sequence (name)       string            7     stt_seq                                                        
#   parent sequence (full name)  string            63    uvm_test_top.env.vir_seqr.vseq_send_N_TX.single_tx_vseq.stt_seq
#   sequencer                    string            41    uvm_test_top.env.apb_uvcc.agent.sequencer                      
# ----------------------------------------------------------------------------------------------------------------------
# 
# UVM_INFO ../tb/uart_virseqs.sv(163) @ 627690000: uvm_test_top.env.vir_seqr@@vseq_send_N_TX.single_tx_vseq [VSEQ] TX_DONE Detected!
# UVM_INFO ../tb/uart_virseqs.sv(170) @ 627690000: uvm_test_top.env.vir_seqr@@vseq_send_N_TX.single_tx_vseq [VSEQ] ===  TEST COMPLETED ===
# UVM_INFO ../tb/uart_virseqs.sv(191) @ 627690000: uvm_test_top.env.vir_seqr@@vseq_send_N_TX [VSEQ_N] 
#####========================Executing FRAME 7/58...========================#####
# UVM_INFO ../tb/uart_virseqs.sv(111) @ 627690000: uvm_test_top.env.vir_seqr@@vseq_send_N_TX.single_tx_vseq [VSEQ] === STARTING  TEST: DUT -> uart UVC ===
# UVM_INFO ../tb/uart_virseqs.sv(67) @ 627690000: uvm_test_top.env.vir_seqr@@vseq_send_N_TX.single_tx_vseq.config_vseq [VSEQ] Configuring System using shared object from Test...
# UVM_INFO ../apb_uvc/apb_seqs.sv(62) @ 627690000: uvm_test_top.env.apb_uvcc.agent.sequencer@@apb_seq [APB_WR_SEQ] Writing Config to DUT: 0x00000006 
#  (DATA_7BIT, PARITY_DIS, PARITY_ODD, STOP_2BIT)
# UVM_INFO ../apb_uvc/apb_driver.sv(52) @ 627750000: uvm_test_top.env.apb_uvcc.agent.driver [apb_driver] APB Transaction:
# --------------------------------------------------------------------------------------------------------
# Name                           Type              Size  Value                                            
# --------------------------------------------------------------------------------------------------------
# req                            apb_transaction   -     @1346                                            
#   paddr                        integral          12    'h8                                              
#   pwdata                       integral          32    'h6                                              
#   pwrite                       integral          1     'h1                                              
#   pstrb                        integral          4     'h1                                              
#   prdata                       integral          32    'h0xxxxxxxx                                      
#   pslverr                      integral          1     'h0X                                             
#   addr_type                    addr_test_type_e  32    ADDR_VALID                                       
#   write_true_flase             write_quality_e   32    WRITE_ADDR_TRUE                                  
#   begin_time                   time              64    627710000                                        
#   depth                        int               32    'd2                                              
#   parent sequence (name)       string            7     apb_seq                                          
#   parent sequence (full name)  string            49    uvm_test_top.env.apb_uvcc.agent.sequencer.apb_seq
#   sequencer                    string            41    uvm_test_top.env.apb_uvcc.agent.sequencer        
# --------------------------------------------------------------------------------------------------------
# 
# UVM_INFO ../apb_uvc/apb_coverage_monitor.sv(94) @ 627750000: uvm_test_top.env.apb_uvcc.agent.monitor [MON] Updating UART Configuration
# UVM_INFO ../tb/apb_uart_scoreboard.sv(112) @ 627750000: uvm_test_top.env.scoreboard [SB_CFG_SYNC] Config updated via APB: DATA_7BIT, STOP_2BIT
# UVM_INFO ../tb/apb_uart_scoreboard.sv(335) @ 627760000: uvm_test_top.env.scoreboard [SB_CFG_HDL] 
# ============CFG Backdoor check PASSED============
# UVM_INFO ../tb/uart_virseqs.sv(82) @ 627950000: uvm_test_top.env.vir_seqr@@vseq_send_N_TX.single_tx_vseq.config_vseq [VSEQ] UART Driver remains IDLE (TX Only Mode)
# UVM_INFO ../tb/uart_virseqs.sv(40) @ 627950000: uvm_test_top.env.vir_seqr@@vseq_send_N_TX.single_tx_vseq [VSEQ] 
#####===NUM DATA BIT = DATA_7BIT, NUM STOP BIT = STOP_2BIT, PARITY EN = PARITY_DIS, PARITY TYPE = PARITY_ODD===#####
# UVM_INFO ../tb/uart_virseqs.sv(139) @ 627950000: uvm_test_top.env.vir_seqr@@vseq_send_N_TX.single_tx_vseq [VSEQ] 
#####===Calculation: Data=10 bits, Baud=115200, Tbit=8680.56ns===#####
# UVM_INFO ../apb_uvc/apb_seqs.sv(88) @ 627950000: uvm_test_top.env.apb_uvcc.agent.sequencer@@vseq_send_N_TX.single_tx_vseq.apb_write_send_seq [send_tx_data_seq] Send TX with data: 0xa5
# UVM_INFO ../apb_uvc/apb_driver.sv(52) @ 628010000: uvm_test_top.env.apb_uvcc.agent.driver [apb_driver] APB Transaction:
# ---------------------------------------------------------------------------------------------------------------------------------
# Name                           Type              Size  Value                                                                     
# ---------------------------------------------------------------------------------------------------------------------------------
# req                            apb_transaction   -     @1358                                                                     
#   paddr                        integral          12    'h0                                                                       
#   pwdata                       integral          32    'ha5                                                                      
#   pwrite                       integral          1     'h1                                                                       
#   pstrb                        integral          4     'h1                                                                       
#   prdata                       integral          32    'h0xxxxxxxx                                                               
#   pslverr                      integral          1     'h0X                                                                      
#   addr_type                    addr_test_type_e  32    ADDR_VALID                                                                
#   write_true_flase             write_quality_e   32    WRITE_ADDR_TRUE                                                           
#   begin_time                   time              64    627970000                                                                 
#   depth                        int               32    'd4                                                                       
#   parent sequence (name)       string            18    apb_write_send_seq                                                        
#   parent sequence (full name)  string            74    uvm_test_top.env.vir_seqr.vseq_send_N_TX.single_tx_vseq.apb_write_send_seq
#   sequencer                    string            41    uvm_test_top.env.apb_uvcc.agent.sequencer                                 
# ---------------------------------------------------------------------------------------------------------------------------------
# 
# UVM_INFO ../apb_uvc/apb_coverage_monitor.sv(93) @ 628010000: uvm_test_top.env.apb_uvcc.agent.monitor [MON] Writing TX Data: 0xa5
# UVM_INFO ../tb/apb_uart_scoreboard.sv(89) @ 628010000: uvm_test_top.env.scoreboard [SB_APB] APB->TXDATA queued: 0xa5
# UVM_INFO ../apb_uvc/apb_driver.sv(52) @ 628070000: uvm_test_top.env.apb_uvcc.agent.driver [apb_driver] APB Transaction:
# ---------------------------------------------------------------------------------------------------------------------------------
# Name                           Type              Size  Value                                                                     
# ---------------------------------------------------------------------------------------------------------------------------------
# req                            apb_transaction   -     @1366                                                                     
#   paddr                        integral          12    'hc                                                                       
#   pwdata                       integral          32    'h1                                                                       
#   pwrite                       integral          1     'h1                                                                       
#   pstrb                        integral          4     'h1                                                                       
#   prdata                       integral          32    'h0xxxxxxxx                                                               
#   pslverr                      integral          1     'h0X                                                                      
#   addr_type                    addr_test_type_e  32    ADDR_VALID                                                                
#   write_true_flase             write_quality_e   32    WRITE_ADDR_FALSE                                                          
#   begin_time                   time              64    628030000                                                                 
#   depth                        int               32    'd4                                                                       
#   parent sequence (name)       string            18    apb_write_send_seq                                                        
#   parent sequence (full name)  string            74    uvm_test_top.env.vir_seqr.vseq_send_N_TX.single_tx_vseq.apb_write_send_seq
#   sequencer                    string            41    uvm_test_top.env.apb_uvcc.agent.sequencer                                 
# ---------------------------------------------------------------------------------------------------------------------------------
# 
# UVM_INFO ../apb_uvc/apb_coverage_monitor.sv(95) @ 628070000: uvm_test_top.env.apb_uvcc.agent.monitor [MON] Start TX Triggered
# UVM_INFO ../tb/apb_uart_scoreboard.sv(141) @ 722010000: uvm_test_top.env.scoreboard [SB_UART] UART TX queued: 0x25
# UVM_INFO ../uart_uvc/uart_coverage_monitor.sv(189) @ 722010000: uvm_test_top.env.uart_uvcc.agent.monitor [MON_TX] DATA is monitored from TX: 0x25
# UVM_INFO ../tb/apb_uart_scoreboard.sv(214) @ 722010000: uvm_test_top.env.scoreboard [SB_TX] 
# Match  APB->TXDATA == UART_TX == 0x25 (bits=7)
# UVM_INFO ../apb_uvc/apb_seqs.sv(134) @ 732242000: uvm_test_top.env.apb_uvcc.agent.sequencer@@vseq_send_N_TX.single_tx_vseq.stt_seq [read_status_reg_seq] Reading UART Status Register (0x10)
# UVM_INFO ../apb_uvc/apb_driver.sv(52) @ 732290000: uvm_test_top.env.apb_uvcc.agent.driver [apb_driver] APB Transaction:
# ----------------------------------------------------------------------------------------------------------------------
# Name                           Type              Size  Value                                                          
# ----------------------------------------------------------------------------------------------------------------------
# req                            apb_transaction   -     @1386                                                          
#   paddr                        integral          12    'h10                                                           
#   pwdata                       integral          32    'hfaa05dd5                                                     
#   pwrite                       integral          1     'h0                                                            
#   pstrb                        integral          4     'h0                                                            
#   prdata                       integral          32    'h3                                                            
#   pslverr                      integral          1     'h0X                                                           
#   addr_type                    addr_test_type_e  32    ADDR_RO                                                        
#   write_true_flase             write_quality_e   32    WRITE_ADDR_FALSE                                               
#   begin_time                   time              64    732250000                                                      
#   depth                        int               32    'd4                                                            
#   parent sequence (name)       string            7     stt_seq                                                        
#   parent sequence (full name)  string            63    uvm_test_top.env.vir_seqr.vseq_send_N_TX.single_tx_vseq.stt_seq
#   sequencer                    string            41    uvm_test_top.env.apb_uvcc.agent.sequencer                      
# ----------------------------------------------------------------------------------------------------------------------
# 
# UVM_INFO ../tb/uart_virseqs.sv(163) @ 732290000: uvm_test_top.env.vir_seqr@@vseq_send_N_TX.single_tx_vseq [VSEQ] TX_DONE Detected!
# UVM_INFO ../tb/uart_virseqs.sv(170) @ 732290000: uvm_test_top.env.vir_seqr@@vseq_send_N_TX.single_tx_vseq [VSEQ] ===  TEST COMPLETED ===
# UVM_INFO ../tb/uart_virseqs.sv(191) @ 732290000: uvm_test_top.env.vir_seqr@@vseq_send_N_TX [VSEQ_N] 
#####========================Executing FRAME 8/58...========================#####
# UVM_INFO ../tb/uart_virseqs.sv(111) @ 732290000: uvm_test_top.env.vir_seqr@@vseq_send_N_TX.single_tx_vseq [VSEQ] === STARTING  TEST: DUT -> uart UVC ===
# UVM_INFO ../tb/uart_virseqs.sv(67) @ 732290000: uvm_test_top.env.vir_seqr@@vseq_send_N_TX.single_tx_vseq.config_vseq [VSEQ] Configuring System using shared object from Test...
# UVM_INFO ../apb_uvc/apb_seqs.sv(62) @ 732290000: uvm_test_top.env.apb_uvcc.agent.sequencer@@apb_seq [APB_WR_SEQ] Writing Config to DUT: 0x00000006 
#  (DATA_7BIT, PARITY_DIS, PARITY_ODD, STOP_2BIT)
# UVM_INFO ../apb_uvc/apb_driver.sv(52) @ 732350000: uvm_test_top.env.apb_uvcc.agent.driver [apb_driver] APB Transaction:
# --------------------------------------------------------------------------------------------------------
# Name                           Type              Size  Value                                            
# --------------------------------------------------------------------------------------------------------
# req                            apb_transaction   -     @1412                                            
#   paddr                        integral          12    'h8                                              
#   pwdata                       integral          32    'h6                                              
#   pwrite                       integral          1     'h1                                              
#   pstrb                        integral          4     'h1                                              
#   prdata                       integral          32    'h0xxxxxxxx                                      
#   pslverr                      integral          1     'h0X                                             
#   addr_type                    addr_test_type_e  32    ADDR_VALID                                       
#   write_true_flase             write_quality_e   32    WRITE_ADDR_FALSE                                 
#   begin_time                   time              64    732310000                                        
#   depth                        int               32    'd2                                              
#   parent sequence (name)       string            7     apb_seq                                          
#   parent sequence (full name)  string            49    uvm_test_top.env.apb_uvcc.agent.sequencer.apb_seq
#   sequencer                    string            41    uvm_test_top.env.apb_uvcc.agent.sequencer        
# --------------------------------------------------------------------------------------------------------
# 
# UVM_INFO ../apb_uvc/apb_coverage_monitor.sv(94) @ 732350000: uvm_test_top.env.apb_uvcc.agent.monitor [MON] Updating UART Configuration
# UVM_INFO ../tb/apb_uart_scoreboard.sv(112) @ 732350000: uvm_test_top.env.scoreboard [SB_CFG_SYNC] Config updated via APB: DATA_7BIT, STOP_2BIT
# UVM_INFO ../tb/apb_uart_scoreboard.sv(335) @ 732360000: uvm_test_top.env.scoreboard [SB_CFG_HDL] 
# ============CFG Backdoor check PASSED============
# UVM_INFO ../tb/uart_virseqs.sv(82) @ 732550000: uvm_test_top.env.vir_seqr@@vseq_send_N_TX.single_tx_vseq.config_vseq [VSEQ] UART Driver remains IDLE (TX Only Mode)
# UVM_INFO ../tb/uart_virseqs.sv(40) @ 732550000: uvm_test_top.env.vir_seqr@@vseq_send_N_TX.single_tx_vseq [VSEQ] 
#####===NUM DATA BIT = DATA_7BIT, NUM STOP BIT = STOP_2BIT, PARITY EN = PARITY_DIS, PARITY TYPE = PARITY_ODD===#####
# UVM_INFO ../tb/uart_virseqs.sv(139) @ 732550000: uvm_test_top.env.vir_seqr@@vseq_send_N_TX.single_tx_vseq [VSEQ] 
#####===Calculation: Data=10 bits, Baud=115200, Tbit=8680.56ns===#####
# UVM_INFO ../apb_uvc/apb_seqs.sv(88) @ 732550000: uvm_test_top.env.apb_uvcc.agent.sequencer@@vseq_send_N_TX.single_tx_vseq.apb_write_send_seq [send_tx_data_seq] Send TX with data: 0xdb
# UVM_INFO ../apb_uvc/apb_driver.sv(52) @ 732610000: uvm_test_top.env.apb_uvcc.agent.driver [apb_driver] APB Transaction:
