# vsim -c tb_top hw_top -wlf vsim.wlf -sv_seed random -solvefaildebug -assertdebug -sva -coverage -voptargs="+acc" -l ./log/vsim.log "+UVM_VERBOSITY=UVM_HIGH" "+UVM_TESTNAME=test_send_TX_sweep_all_cfg_32" -sv_lib uvm_dpi -do "coverage save -onexit -assert -code bcefs -directive -cvg coverage.ucdb; log -r /*; run -all; quit" 
# Start time: 00:28:23 on Jan 27,2026
# ** Note: (vsim-3812) Design is being optimized...
# ** Note: (vopt-143) Recognized 2 FSMs in module "uart(fast)".
# //  Questa Sim-64
# //  Version 10.7c linux_x86_64 Aug 17 2018
# //
# //  Copyright 1991-2018 Mentor Graphics Corporation
# //  All Rights Reserved.
# //
# //  QuestaSim and its associated documentation contain trade
# //  secrets and commercial or financial information that are the property of
# //  Mentor Graphics Corporation and are privileged, confidential,
# //  and exempt from disclosure under the Freedom of Information Act,
# //  5 U.S.C. Section 552. Furthermore, this information
# //  is prohibited from disclosure under the Trade Secrets Act,
# //  18 U.S.C. Section 1905.
# //
# Loading sv_std.std
# Loading work.apb_if(fast)
# Loading work.uart_if(fast)
# Loading mtiUvm.uvm_pkg
# Loading work.uart_common_pkg(fast)
# Loading work.uart_pkg(fast)
# Loading work.apb_pkg(fast)
# Loading work.uart_tb_pkg(fast)
# Loading work.tb_top(fast)
# Loading work.hw_top(fast)
# Loading work.apb_if_sv_unit(fast)
# Loading work.apb_if(fast)
# Loading work.uart_if_sv_unit(fast)
# Loading work.uart_if(fast)
# Loading work.uart(fast)
# Loading mtiUvm.questa_uvm_pkg(fast)
# Loading ./uvm_dpi.so
# Sv_Seed = 3553944759
# coverage save -onexit -assert -code bcefs -directive -cvg coverage.ucdb
#  log -r /*
#  run -all
# ----------------------------------------------------------------
# UVM-1.1d
# (C) 2007-2013 Mentor Graphics Corporation
# (C) 2007-2013 Cadence Design Systems, Inc.
# (C) 2006-2013 Synopsys, Inc.
# (C) 2011-2013 Cypress Semiconductor Corp.
# ----------------------------------------------------------------
# 
#   ***********       IMPORTANT RELEASE NOTES         ************
# 
#   You are using a version of the UVM library that has been compiled
#   with `UVM_NO_DEPRECATED undefined.
#   See http://www.eda.org/svdb/view.php?id=3313 for more details.
# 
#   You are using a version of the UVM library that has been compiled
#   with `UVM_OBJECT_MUST_HAVE_CONSTRUCTOR undefined.
#   See http://www.eda.org/svdb/view.php?id=3770 for more details.
# 
#       (Specify +UVM_NO_RELNOTES to turn off this notice)
# 
# UVM_INFO verilog_src/questa_uvm_pkg-1.2/src/questa_uvm_pkg.sv(215) @ 0: reporter [Questa UVM] QUESTA_UVM-1.2.3
# UVM_INFO verilog_src/questa_uvm_pkg-1.2/src/questa_uvm_pkg.sv(216) @ 0: reporter [Questa UVM]  questa_uvm::init(+struct)
# UVM_INFO @ 0: reporter [RNTST] Running test test_send_TX_sweep_all_cfg_32...
# UVM_INFO ../tb/apb_uart_testlib.sv(323) @ 0: uvm_test_top [TEST] 
####======================== TEST ALL CONFIG TO TRAN ========================#####
# UVM_INFO ../tb/apb_uart_env.sv(17) @ 0: uvm_test_top.env [APB_UART_ENVIRONMENT] The env is being build phase
# UVM_INFO ../tb/apb_uart_testlib.sv(32) @ 0: uvm_test_top [test_send_TX_sweep_all_cfg_32] Printing topology:
# UVM_INFO @ 0: reporter [UVMTOP] UVM testbench topology:
# ------------------------------------------------------------------------------
# Name                           Type                           Size  Value     
# ------------------------------------------------------------------------------
# uvm_test_top                   test_send_TX_sweep_all_cfg_32  -     @476      
#   env                          apb_uart_env                   -     @494      
#     apb_uvcc                   apb_uvc                        -     @502      
#       agent                    apb_agent                      -     @652      
#         driver                 apb_driver                     -     @787      
#           rsp_port             uvm_analysis_port              -     @802      
#           seq_item_port        uvm_seq_item_pull_port         -     @794      
#           num_trans            integral                       32    'h0       
#         monitor                apb_coverage_monitor           -     @663      
#           item_collected_port  uvm_analysis_port              -     @670      
#           num_trans_col        integral                       32    'h0       
#           coverage_control     cover_e                        1     COV_ENABLE
#         sequencer              apb_sequencer                  -     @678      
#           rsp_export           uvm_analysis_export            -     @685      
#           seq_item_export      uvm_seq_item_pull_imp          -     @779      
#           arbitration_queue    array                          0     -         
#           lock_queue           array                          0     -         
#           num_last_reqs        integral                       32    'd1       
#           num_last_rsps        integral                       32    'd1       
#         is_active              uvm_active_passive_enum        1     UVM_ACTIVE
#     scoreboard                 apb_uart_scoreboard            -     @516      
#       apb_port                 uvm_analysis_imp_apb           -     @523      
#       uart_port                uvm_analysis_imp_uart          -     @531      
#     uart_uvcc                  uart_uvc                       -     @509      
#       agent                    uart_agent                     -     @825      
#         driver                 uart_driver                    -     @958      
#           rsp_port             uvm_analysis_port              -     @973      
#           seq_item_port        uvm_seq_item_pull_port         -     @965      
#         monitor                uart_coverage_monitor          -     @834      
#           item_collected_port  uvm_analysis_port              -     @841      
#         sequencer              uart_sequencer                 -     @849      
#           rsp_export           uvm_analysis_export            -     @856      
#           seq_item_export      uvm_seq_item_pull_imp          -     @950      
#           arbitration_queue    array                          0     -         
#           lock_queue           array                          0     -         
#           num_last_reqs        integral                       32    'd1       
#           num_last_rsps        integral                       32    'd1       
#     vir_seqr                   uart_virsequencer              -     @539      
#       rsp_export               uvm_analysis_export            -     @546      
#       seq_item_export          uvm_seq_item_pull_imp          -     @640      
#       arbitration_queue        array                          0     -         
#       lock_queue               array                          0     -         
#       num_last_reqs            integral                       32    'd1       
#       num_last_rsps            integral                       32    'd1       
# ------------------------------------------------------------------------------
# 
# UVM_INFO verilog_src/questa_uvm_pkg-1.2/src/questa_uvm_pkg.sv(277) @ 0: reporter [Questa UVM] End Of Elaboration
# UVM_INFO ../apb_uvc/apb_driver.sv(22) @ 0: uvm_test_top.env.apb_uvcc.agent.driver [apb_driver] Start of simulation for uvm_test_top.env.apb_uvcc.agent.driver
# UVM_INFO ../apb_uvc/apb_coverage_monitor.sv(71) @ 0: uvm_test_top.env.apb_uvcc.agent.monitor [apb_coverage_monitor] Start of simulation for uvm_test_top.env.apb_uvcc.agent.monitor
# UVM_INFO ../apb_uvc/apb_sequencer.sv(11) @ 0: uvm_test_top.env.apb_uvcc.agent.sequencer [apb_sequencer] start of simulation for uvm_test_top.env.apb_uvcc.agent.sequencer
# UVM_INFO ../apb_uvc/apb_agent.sv(35) @ 0: uvm_test_top.env.apb_uvcc.agent [apb_agent] Start of simulation for uvm_test_top.env.apb_uvcc.agent
# UVM_INFO ../apb_uvc/apb_uvc.sv(19) @ 0: uvm_test_top.env.apb_uvcc [apb_uvc] Start of simulation for uvm_test_top.env.apb_uvcc
# UVM_INFO ../uart_uvc/uart_sequencer.sv(10) @ 0: uvm_test_top.env.uart_uvcc.agent.sequencer [uart_sequencer] start of simulation for uvm_test_top.env.uart_uvcc.agent.sequencer
# UVM_INFO ../uart_uvc/uart_agent.sv(48) @ 0: uvm_test_top.env.uart_uvcc.agent [uart_agent] Start of simulation for uvm_test_top.env.uart_uvcc.agent
# UVM_INFO ../uart_uvc/uart_agent.sv(49) @ 0: uvm_test_top.env.uart_uvcc.agent [uart_agent] Agent started in UVM_ACTIVE mode.
# UVM_INFO ../tb/apb_uart_testlib.sv(37) @ 0: uvm_test_top [test_send_TX_sweep_all_cfg_32] start of simulation for uvm_test_top
# UVM_INFO ../tb/apb_uart_scoreboard.sv(121) @ 0: uvm_test_top.env.scoreboard [SB_RESET] Reset detected! Clearing all queues...
# UVM_INFO ../tb/uart_virseqs.sv(21) @ 0: uvm_test_top.env.vir_seqr@@vseq_send_TX_sweep_all_cfg_32 [vseq_send_TX_sweep_all_cfg_32] raise objection
# UVM_INFO ../tb/uart_virseqs.sv(829) @ 0: uvm_test_top.env.vir_seqr@@vseq_send_TX_sweep_all_cfg_32 [CFG32] 
# UVM_INFO ../tb/uart_virseqs.sv(830) @ 0: uvm_test_top.env.vir_seqr@@vseq_send_TX_sweep_all_cfg_32 [CFG32] ======================================================================
# UVM_INFO ../tb/uart_virseqs.sv(831) @ 0: uvm_test_top.env.vir_seqr@@vseq_send_TX_sweep_all_cfg_32 [CFG32] START: Sweep ALL 32 UART CFGs (GOOD_PARITY) and SEND 1 TX each
# UVM_INFO ../tb/uart_virseqs.sv(832) @ 0: uvm_test_top.env.vir_seqr@@vseq_send_TX_sweep_all_cfg_32 [CFG32] ======================================================================
# UVM_INFO ../tb/uart_virseqs.sv(882) @ 0: uvm_test_top.env.vir_seqr@@vseq_send_TX_sweep_all_cfg_32 [VSEQ_N] 
#####======================== Executing FRAME 0/32 ========================#####
# UVM_INFO ../tb/uart_virseqs.sv(856) @ 0: uvm_test_top.env.vir_seqr@@vseq_send_TX_sweep_all_cfg_32 [CFG32] [1/32] APPLY CFG: data=DATA_5BIT stop=STOP_1BIT parity_en=PARITY_DIS parity_type=PARITY_ODD (GOOD_PARITY)
# UVM_INFO ../tb/uart_virseqs.sv(111) @ 0: uvm_test_top.env.vir_seqr@@one_tx_cfg1 [VSEQ] === STARTING  TEST: DUT -> uart UVC ===
# UVM_INFO ../tb/uart_virseqs.sv(67) @ 0: uvm_test_top.env.vir_seqr@@one_tx_cfg1.config_vseq [VSEQ] Configuring System using shared object from Test...
# UVM_INFO ../apb_uvc/apb_seqs.sv(62) @ 0: uvm_test_top.env.apb_uvcc.agent.sequencer@@apb_seq [APB_WR_SEQ] Writing Config to DUT: 0x00000000 
#  (DATA_5BIT, PARITY_DIS, PARITY_ODD, STOP_1BIT)
# UVM_INFO ../uart_uvc/uart_driver.sv(33) @ 100000: uvm_test_top.env.uart_uvcc.agent.driver [uart_driver] Reset released. UART Driver started.
# UVM_INFO ../uart_uvc/uart_coverage_monitor.sv(95) @ 100000: uvm_test_top.env.uart_uvcc.agent.monitor [uart_coverage_monitor] Coverage Monitor started.
# UVM_INFO ../apb_uvc/apb_driver.sv(35) @ 100000: uvm_test_top.env.apb_uvcc.agent.driver [apb_driver] Reset released, APB Driver active
# UVM_INFO ../apb_uvc/apb_driver.sv(52) @ 150000: uvm_test_top.env.apb_uvcc.agent.driver [apb_driver] APB Transaction:
# --------------------------------------------------------------------------------------------------------
# Name                           Type              Size  Value                                            
# --------------------------------------------------------------------------------------------------------
# req                            apb_transaction   -     @1038                                            
#   paddr                        integral          12    'h8                                              
#   pwdata                       integral          32    'h0                                              
#   pwrite                       integral          1     'h1                                              
#   pstrb                        integral          4     'h1                                              
#   prdata                       integral          32    'h0xxxxxxxx                                      
#   pslverr                      integral          1     'h0X                                             
#   addr_type                    addr_test_type_e  32    ADDR_VALID                                       
#   write_true_flase             write_quality_e   32    WRITE_ADDR_FALSE                                 
#   begin_time                   time              64    110000                                           
#   depth                        int               32    'd2                                              
#   parent sequence (name)       string            7     apb_seq                                          
#   parent sequence (full name)  string            49    uvm_test_top.env.apb_uvcc.agent.sequencer.apb_seq
#   sequencer                    string            41    uvm_test_top.env.apb_uvcc.agent.sequencer        
# --------------------------------------------------------------------------------------------------------
# 
# UVM_INFO ../apb_uvc/apb_coverage_monitor.sv(94) @ 150000: uvm_test_top.env.apb_uvcc.agent.monitor [MON] Updating UART Configuration
# UVM_INFO ../tb/apb_uart_scoreboard.sv(112) @ 150000: uvm_test_top.env.scoreboard [SB_CFG_SYNC] Config updated via APB: DATA_5BIT, STOP_1BIT
# UVM_INFO ../tb/apb_uart_scoreboard.sv(335) @ 160000: uvm_test_top.env.scoreboard [SB_CFG_HDL] 
# ============CFG Backdoor check PASSED============
# UVM_INFO ../tb/uart_virseqs.sv(82) @ 350000: uvm_test_top.env.vir_seqr@@one_tx_cfg1.config_vseq [VSEQ] UART Driver remains IDLE (TX Only Mode)
# UVM_INFO ../tb/uart_virseqs.sv(40) @ 350000: uvm_test_top.env.vir_seqr@@one_tx_cfg1 [VSEQ] 
#####===NUM DATA BIT = DATA_5BIT, NUM STOP BIT = STOP_1BIT, PARITY EN = PARITY_DIS, PARITY TYPE = PARITY_ODD===#####
# UVM_INFO ../tb/uart_virseqs.sv(139) @ 350000: uvm_test_top.env.vir_seqr@@one_tx_cfg1 [VSEQ] 
#####===Calculation: Data=7 bits, Baud=115200, Tbit=8680.56ns===#####
# UVM_INFO ../apb_uvc/apb_seqs.sv(88) @ 350000: uvm_test_top.env.apb_uvcc.agent.sequencer@@one_tx_cfg1.apb_write_send_seq [send_tx_data_seq] Send TX with data: 0xab
# UVM_INFO ../apb_uvc/apb_driver.sv(52) @ 410000: uvm_test_top.env.apb_uvcc.agent.driver [apb_driver] APB Transaction:
# ---------------------------------------------------------------------------------------------------------------
# Name                           Type              Size  Value                                                   
# ---------------------------------------------------------------------------------------------------------------
# req                            apb_transaction   -     @1130                                                   
#   paddr                        integral          12    'h0                                                     
#   pwdata                       integral          32    'hab                                                    
#   pwrite                       integral          1     'h1                                                     
#   pstrb                        integral          4     'h1                                                     
#   prdata                       integral          32    'h0xxxxxxxx                                             
#   pslverr                      integral          1     'h0X                                                    
#   addr_type                    addr_test_type_e  32    ADDR_VALID                                              
#   write_true_flase             write_quality_e   32    WRITE_ADDR_FALSE                                        
#   begin_time                   time              64    370000                                                  
#   depth                        int               32    'd3                                                     
#   parent sequence (name)       string            18    apb_write_send_seq                                      
#   parent sequence (full name)  string            56    uvm_test_top.env.vir_seqr.one_tx_cfg1.apb_write_send_seq
#   sequencer                    string            41    uvm_test_top.env.apb_uvcc.agent.sequencer               
# ---------------------------------------------------------------------------------------------------------------
# 
# UVM_INFO ../apb_uvc/apb_coverage_monitor.sv(93) @ 410000: uvm_test_top.env.apb_uvcc.agent.monitor [MON] Writing TX Data: 0xab
# UVM_INFO ../tb/apb_uart_scoreboard.sv(89) @ 410000: uvm_test_top.env.scoreboard [SB_APB] APB->TXDATA queued: 0xab
# UVM_INFO ../apb_uvc/apb_driver.sv(52) @ 470000: uvm_test_top.env.apb_uvcc.agent.driver [apb_driver] APB Transaction:
# ---------------------------------------------------------------------------------------------------------------
# Name                           Type              Size  Value                                                   
# ---------------------------------------------------------------------------------------------------------------
# req                            apb_transaction   -     @1138                                                   
#   paddr                        integral          12    'hc                                                     
#   pwdata                       integral          32    'h1                                                     
#   pwrite                       integral          1     'h1                                                     
#   pstrb                        integral          4     'h1                                                     
#   prdata                       integral          32    'h0xxxxxxxx                                             
#   pslverr                      integral          1     'h0X                                                    
#   addr_type                    addr_test_type_e  32    ADDR_VALID                                              
#   write_true_flase             write_quality_e   32    WRITE_ADDR_TRUE                                         
#   begin_time                   time              64    430000                                                  
#   depth                        int               32    'd3                                                     
#   parent sequence (name)       string            18    apb_write_send_seq                                      
#   parent sequence (full name)  string            56    uvm_test_top.env.vir_seqr.one_tx_cfg1.apb_write_send_seq
#   sequencer                    string            41    uvm_test_top.env.apb_uvcc.agent.sequencer               
# ---------------------------------------------------------------------------------------------------------------
# 
# UVM_INFO ../apb_uvc/apb_coverage_monitor.sv(95) @ 470000: uvm_test_top.env.apb_uvcc.agent.monitor [MON] Start TX Triggered
# UVM_INFO ../tb/apb_uart_scoreboard.sv(141) @ 69570000: uvm_test_top.env.scoreboard [SB_UART] UART TX queued: 0x0b
# UVM_INFO ../uart_uvc/uart_coverage_monitor.sv(189) @ 69570000: uvm_test_top.env.uart_uvcc.agent.monitor [MON_TX] DATA is monitored from TX: 0x0b
# UVM_INFO ../tb/apb_uart_scoreboard.sv(214) @ 69570000: uvm_test_top.env.scoreboard [SB_TX] 
# Match  APB->TXDATA == UART_TX == 0x0b (bits=5)
# UVM_INFO ../apb_uvc/apb_seqs.sv(134) @ 78599000: uvm_test_top.env.apb_uvcc.agent.sequencer@@one_tx_cfg1.stt_seq [read_status_reg_seq] Reading UART Status Register (0x10)
# UVM_INFO ../apb_uvc/apb_driver.sv(52) @ 78650000: uvm_test_top.env.apb_uvcc.agent.driver [apb_driver] APB Transaction:
# ----------------------------------------------------------------------------------------------------
# Name                           Type              Size  Value                                        
# ----------------------------------------------------------------------------------------------------
# req                            apb_transaction   -     @1160                                        
#   paddr                        integral          12    'h10                                         
#   pwdata                       integral          32    'heafe69eb                                   
#   pwrite                       integral          1     'h0                                          
#   pstrb                        integral          4     'h1                                          
#   prdata                       integral          32    'h3                                          
#   pslverr                      integral          1     'h0X                                         
#   addr_type                    addr_test_type_e  32    ADDR_RO                                      
#   write_true_flase             write_quality_e   32    WRITE_ADDR_TRUE                              
#   begin_time                   time              64    78610000                                     
#   depth                        int               32    'd3                                          
#   parent sequence (name)       string            7     stt_seq                                      
#   parent sequence (full name)  string            45    uvm_test_top.env.vir_seqr.one_tx_cfg1.stt_seq
#   sequencer                    string            41    uvm_test_top.env.apb_uvcc.agent.sequencer    
# ----------------------------------------------------------------------------------------------------
# 
# UVM_INFO ../tb/uart_virseqs.sv(163) @ 78650000: uvm_test_top.env.vir_seqr@@one_tx_cfg1 [VSEQ] TX_DONE Detected!
# UVM_INFO ../tb/uart_virseqs.sv(170) @ 78650000: uvm_test_top.env.vir_seqr@@one_tx_cfg1 [VSEQ] ===  TEST COMPLETED ===
# UVM_INFO ../tb/uart_virseqs.sv(882) @ 78650000: uvm_test_top.env.vir_seqr@@vseq_send_TX_sweep_all_cfg_32 [VSEQ_N] 
#####======================== Executing FRAME 1/32 ========================#####
# UVM_INFO ../tb/uart_virseqs.sv(856) @ 78650000: uvm_test_top.env.vir_seqr@@vseq_send_TX_sweep_all_cfg_32 [CFG32] [2/32] APPLY CFG: data=DATA_5BIT stop=STOP_2BIT parity_en=PARITY_DIS parity_type=PARITY_ODD (GOOD_PARITY)
# UVM_INFO ../tb/uart_virseqs.sv(111) @ 78650000: uvm_test_top.env.vir_seqr@@one_tx_cfg2 [VSEQ] === STARTING  TEST: DUT -> uart UVC ===
# UVM_INFO ../tb/uart_virseqs.sv(67) @ 78650000: uvm_test_top.env.vir_seqr@@one_tx_cfg2.config_vseq [VSEQ] Configuring System using shared object from Test...
# UVM_INFO ../apb_uvc/apb_seqs.sv(62) @ 78650000: uvm_test_top.env.apb_uvcc.agent.sequencer@@apb_seq [APB_WR_SEQ] Writing Config to DUT: 0x00000004 
#  (DATA_5BIT, PARITY_DIS, PARITY_ODD, STOP_2BIT)
# UVM_INFO ../apb_uvc/apb_driver.sv(52) @ 78710000: uvm_test_top.env.apb_uvcc.agent.driver [apb_driver] APB Transaction:
# --------------------------------------------------------------------------------------------------------
# Name                           Type              Size  Value                                            
# --------------------------------------------------------------------------------------------------------
# req                            apb_transaction   -     @1186                                            
#   paddr                        integral          12    'h8                                              
#   pwdata                       integral          32    'h4                                              
#   pwrite                       integral          1     'h1                                              
#   pstrb                        integral          4     'h1                                              
#   prdata                       integral          32    'h0xxxxxxxx                                      
#   pslverr                      integral          1     'h0X                                             
#   addr_type                    addr_test_type_e  32    ADDR_VALID                                       
#   write_true_flase             write_quality_e   32    WRITE_ADDR_FALSE                                 
#   begin_time                   time              64    78670000                                         
#   depth                        int               32    'd2                                              
#   parent sequence (name)       string            7     apb_seq                                          
#   parent sequence (full name)  string            49    uvm_test_top.env.apb_uvcc.agent.sequencer.apb_seq
#   sequencer                    string            41    uvm_test_top.env.apb_uvcc.agent.sequencer        
# --------------------------------------------------------------------------------------------------------
# 
# UVM_INFO ../apb_uvc/apb_coverage_monitor.sv(94) @ 78710000: uvm_test_top.env.apb_uvcc.agent.monitor [MON] Updating UART Configuration
# UVM_INFO ../tb/apb_uart_scoreboard.sv(112) @ 78710000: uvm_test_top.env.scoreboard [SB_CFG_SYNC] Config updated via APB: DATA_5BIT, STOP_2BIT
# UVM_INFO ../tb/apb_uart_scoreboard.sv(335) @ 78720000: uvm_test_top.env.scoreboard [SB_CFG_HDL] 
# ============CFG Backdoor check PASSED============
# UVM_INFO ../tb/uart_virseqs.sv(82) @ 78910000: uvm_test_top.env.vir_seqr@@one_tx_cfg2.config_vseq [VSEQ] UART Driver remains IDLE (TX Only Mode)
# UVM_INFO ../tb/uart_virseqs.sv(40) @ 78910000: uvm_test_top.env.vir_seqr@@one_tx_cfg2 [VSEQ] 
#####===NUM DATA BIT = DATA_5BIT, NUM STOP BIT = STOP_2BIT, PARITY EN = PARITY_DIS, PARITY TYPE = PARITY_ODD===#####
# UVM_INFO ../tb/uart_virseqs.sv(139) @ 78910000: uvm_test_top.env.vir_seqr@@one_tx_cfg2 [VSEQ] 
#####===Calculation: Data=8 bits, Baud=115200, Tbit=8680.56ns===#####
# UVM_INFO ../apb_uvc/apb_seqs.sv(88) @ 78910000: uvm_test_top.env.apb_uvcc.agent.sequencer@@one_tx_cfg2.apb_write_send_seq [send_tx_data_seq] Send TX with data: 0x7e
# UVM_INFO ../apb_uvc/apb_driver.sv(52) @ 78970000: uvm_test_top.env.apb_uvcc.agent.driver [apb_driver] APB Transaction:
# ---------------------------------------------------------------------------------------------------------------
# Name                           Type              Size  Value                                                   
# ---------------------------------------------------------------------------------------------------------------
# req                            apb_transaction   -     @1198                                                   
#   paddr                        integral          12    'h0                                                     
#   pwdata                       integral          32    'h7e                                                    
#   pwrite                       integral          1     'h1                                                     
#   pstrb                        integral          4     'h1                                                     
#   prdata                       integral          32    'h0xxxxxxxx                                             
#   pslverr                      integral          1     'h0X                                                    
#   addr_type                    addr_test_type_e  32    ADDR_VALID                                              
#   write_true_flase             write_quality_e   32    WRITE_ADDR_FALSE                                        
#   begin_time                   time              64    78930000                                                
#   depth                        int               32    'd3                                                     
#   parent sequence (name)       string            18    apb_write_send_seq                                      
#   parent sequence (full name)  string            56    uvm_test_top.env.vir_seqr.one_tx_cfg2.apb_write_send_seq
#   sequencer                    string            41    uvm_test_top.env.apb_uvcc.agent.sequencer               
# ---------------------------------------------------------------------------------------------------------------
# 
# UVM_INFO ../apb_uvc/apb_coverage_monitor.sv(93) @ 78970000: uvm_test_top.env.apb_uvcc.agent.monitor [MON] Writing TX Data: 0x7e
# UVM_INFO ../tb/apb_uart_scoreboard.sv(89) @ 78970000: uvm_test_top.env.scoreboard [SB_APB] APB->TXDATA queued: 0x7e
# UVM_INFO ../apb_uvc/apb_driver.sv(52) @ 79030000: uvm_test_top.env.apb_uvcc.agent.driver [apb_driver] APB Transaction:
# ---------------------------------------------------------------------------------------------------------------
# Name                           Type              Size  Value                                                   
# ---------------------------------------------------------------------------------------------------------------
# req                            apb_transaction   -     @1206                                                   
#   paddr                        integral          12    'hc                                                     
#   pwdata                       integral          32    'h1                                                     
#   pwrite                       integral          1     'h1                                                     
#   pstrb                        integral          4     'h1                                                     
#   prdata                       integral          32    'h0xxxxxxxx                                             
#   pslverr                      integral          1     'h0X                                                    
#   addr_type                    addr_test_type_e  32    ADDR_VALID                                              
#   write_true_flase             write_quality_e   32    WRITE_ADDR_FALSE                                        
#   begin_time                   time              64    78990000                                                
#   depth                        int               32    'd3                                                     
#   parent sequence (name)       string            18    apb_write_send_seq                                      
#   parent sequence (full name)  string            56    uvm_test_top.env.vir_seqr.one_tx_cfg2.apb_write_send_seq
#   sequencer                    string            41    uvm_test_top.env.apb_uvcc.agent.sequencer               
# ---------------------------------------------------------------------------------------------------------------
# 
# UVM_INFO ../apb_uvc/apb_coverage_monitor.sv(95) @ 79030000: uvm_test_top.env.apb_uvcc.agent.monitor [MON] Start TX Triggered
# UVM_INFO ../tb/apb_uart_scoreboard.sv(141) @ 156550000: uvm_test_top.env.scoreboard [SB_UART] UART TX queued: 0x1e
# UVM_INFO ../uart_uvc/uart_coverage_monitor.sv(189) @ 156550000: uvm_test_top.env.uart_uvcc.agent.monitor [MON_TX] DATA is monitored from TX: 0x1e
# UVM_INFO ../tb/apb_uart_scoreboard.sv(214) @ 156550000: uvm_test_top.env.scoreboard [SB_TX] 
# Match  APB->TXDATA == UART_TX == 0x1e (bits=5)
# UVM_INFO ../apb_uvc/apb_seqs.sv(134) @ 165840000: uvm_test_top.env.apb_uvcc.agent.sequencer@@one_tx_cfg2.stt_seq [read_status_reg_seq] Reading UART Status Register (0x10)
# UVM_INFO ../apb_uvc/apb_driver.sv(52) @ 165890000: uvm_test_top.env.apb_uvcc.agent.driver [apb_driver] APB Transaction:
# ----------------------------------------------------------------------------------------------------
# Name                           Type              Size  Value                                        
# ----------------------------------------------------------------------------------------------------
# req                            apb_transaction   -     @1226                                        
#   paddr                        integral          12    'h10                                         
#   pwdata                       integral          32    'he831399a                                   
#   pwrite                       integral          1     'h0                                          
#   pstrb                        integral          4     'h0                                          
#   prdata                       integral          32    'h3                                          
#   pslverr                      integral          1     'h0X                                         
#   addr_type                    addr_test_type_e  32    ADDR_RO                                      
#   write_true_flase             write_quality_e   32    WRITE_ADDR_TRUE                              
#   begin_time                   time              64    165850000                                    
#   depth                        int               32    'd3                                          
#   parent sequence (name)       string            7     stt_seq                                      
#   parent sequence (full name)  string            45    uvm_test_top.env.vir_seqr.one_tx_cfg2.stt_seq
#   sequencer                    string            41    uvm_test_top.env.apb_uvcc.agent.sequencer    
# ----------------------------------------------------------------------------------------------------
# 
# UVM_INFO ../tb/uart_virseqs.sv(163) @ 165890000: uvm_test_top.env.vir_seqr@@one_tx_cfg2 [VSEQ] TX_DONE Detected!
# UVM_INFO ../tb/uart_virseqs.sv(170) @ 165890000: uvm_test_top.env.vir_seqr@@one_tx_cfg2 [VSEQ] ===  TEST COMPLETED ===
# UVM_INFO ../tb/uart_virseqs.sv(882) @ 165890000: uvm_test_top.env.vir_seqr@@vseq_send_TX_sweep_all_cfg_32 [VSEQ_N] 
#####======================== Executing FRAME 2/32 ========================#####
# UVM_INFO ../tb/uart_virseqs.sv(856) @ 165890000: uvm_test_top.env.vir_seqr@@vseq_send_TX_sweep_all_cfg_32 [CFG32] [3/32] APPLY CFG: data=DATA_5BIT stop=STOP_1BIT parity_en=PARITY_DIS parity_type=PARITY_EVEN (GOOD_PARITY)
# UVM_INFO ../tb/uart_virseqs.sv(111) @ 165890000: uvm_test_top.env.vir_seqr@@one_tx_cfg3 [VSEQ] === STARTING  TEST: DUT -> uart UVC ===
# UVM_INFO ../tb/uart_virseqs.sv(67) @ 165890000: uvm_test_top.env.vir_seqr@@one_tx_cfg3.config_vseq [VSEQ] Configuring System using shared object from Test...
# UVM_INFO ../apb_uvc/apb_seqs.sv(62) @ 165890000: uvm_test_top.env.apb_uvcc.agent.sequencer@@apb_seq [APB_WR_SEQ] Writing Config to DUT: 0x00000010 
#  (DATA_5BIT, PARITY_DIS, PARITY_EVEN, STOP_1BIT)
# UVM_INFO ../apb_uvc/apb_driver.sv(52) @ 165950000: uvm_test_top.env.apb_uvcc.agent.driver [apb_driver] APB Transaction:
# --------------------------------------------------------------------------------------------------------
# Name                           Type              Size  Value                                            
# --------------------------------------------------------------------------------------------------------
# req                            apb_transaction   -     @1252                                            
#   paddr                        integral          12    'h8                                              
#   pwdata                       integral          32    'h10                                             
#   pwrite                       integral          1     'h1                                              
#   pstrb                        integral          4     'h1                                              
#   prdata                       integral          32    'h0xxxxxxxx                                      
#   pslverr                      integral          1     'h0X                                             
#   addr_type                    addr_test_type_e  32    ADDR_VALID                                       
#   write_true_flase             write_quality_e   32    WRITE_ADDR_TRUE                                  
#   begin_time                   time              64    165910000                                        
#   depth                        int               32    'd2                                              
#   parent sequence (name)       string            7     apb_seq                                          
#   parent sequence (full name)  string            49    uvm_test_top.env.apb_uvcc.agent.sequencer.apb_seq
#   sequencer                    string            41    uvm_test_top.env.apb_uvcc.agent.sequencer        
# --------------------------------------------------------------------------------------------------------
# 
# UVM_INFO ../apb_uvc/apb_coverage_monitor.sv(94) @ 165950000: uvm_test_top.env.apb_uvcc.agent.monitor [MON] Updating UART Configuration
# UVM_INFO ../tb/apb_uart_scoreboard.sv(112) @ 165950000: uvm_test_top.env.scoreboard [SB_CFG_SYNC] Config updated via APB: DATA_5BIT, STOP_1BIT
# UVM_INFO ../tb/apb_uart_scoreboard.sv(335) @ 165960000: uvm_test_top.env.scoreboard [SB_CFG_HDL] 
# ============CFG Backdoor check PASSED============
# UVM_INFO ../tb/uart_virseqs.sv(82) @ 166150000: uvm_test_top.env.vir_seqr@@one_tx_cfg3.config_vseq [VSEQ] UART Driver remains IDLE (TX Only Mode)
# UVM_INFO ../tb/uart_virseqs.sv(40) @ 166150000: uvm_test_top.env.vir_seqr@@one_tx_cfg3 [VSEQ] 
#####===NUM DATA BIT = DATA_5BIT, NUM STOP BIT = STOP_1BIT, PARITY EN = PARITY_DIS, PARITY TYPE = PARITY_EVEN===#####
# UVM_INFO ../tb/uart_virseqs.sv(139) @ 166150000: uvm_test_top.env.vir_seqr@@one_tx_cfg3 [VSEQ] 
#####===Calculation: Data=7 bits, Baud=115200, Tbit=8680.56ns===#####
# UVM_INFO ../apb_uvc/apb_seqs.sv(88) @ 166150000: uvm_test_top.env.apb_uvcc.agent.sequencer@@one_tx_cfg3.apb_write_send_seq [send_tx_data_seq] Send TX with data: 0xc7
# UVM_INFO ../apb_uvc/apb_driver.sv(52) @ 166210000: uvm_test_top.env.apb_uvcc.agent.driver [apb_driver] APB Transaction:
# ---------------------------------------------------------------------------------------------------------------
# Name                           Type              Size  Value                                                   
# ---------------------------------------------------------------------------------------------------------------
# req                            apb_transaction   -     @1264                                                   
#   paddr                        integral          12    'h0                                                     
#   pwdata                       integral          32    'hc7                                                    
#   pwrite                       integral          1     'h1                                                     
#   pstrb                        integral          4     'h1                                                     
#   prdata                       integral          32    'h0xxxxxxxx                                             
#   pslverr                      integral          1     'h0X                                                    
#   addr_type                    addr_test_type_e  32    ADDR_VALID                                              
#   write_true_flase             write_quality_e   32    WRITE_ADDR_FALSE                                        
#   begin_time                   time              64    166170000                                               
#   depth                        int               32    'd3                                                     
#   parent sequence (name)       string            18    apb_write_send_seq                                      
#   parent sequence (full name)  string            56    uvm_test_top.env.vir_seqr.one_tx_cfg3.apb_write_send_seq
#   sequencer                    string            41    uvm_test_top.env.apb_uvcc.agent.sequencer               
# ---------------------------------------------------------------------------------------------------------------
# 
# UVM_INFO ../apb_uvc/apb_coverage_monitor.sv(93) @ 166210000: uvm_test_top.env.apb_uvcc.agent.monitor [MON] Writing TX Data: 0xc7
# UVM_INFO ../tb/apb_uart_scoreboard.sv(89) @ 166210000: uvm_test_top.env.scoreboard [SB_APB] APB->TXDATA queued: 0xc7
# UVM_INFO ../apb_uvc/apb_driver.sv(52) @ 166270000: uvm_test_top.env.apb_uvcc.agent.driver [apb_driver] APB Transaction:
# ---------------------------------------------------------------------------------------------------------------
# Name                           Type              Size  Value                                                   
# ---------------------------------------------------------------------------------------------------------------
# req                            apb_transaction   -     @1272                                                   
#   paddr                        integral          12    'hc                                                     
#   pwdata                       integral          32    'h1                                                     
#   pwrite                       integral          1     'h1                                                     
#   pstrb                        integral          4     'h1                                                     
#   prdata                       integral          32    'h0xxxxxxxx                                             
#   pslverr                      integral          1     'h0X                                                    
#   addr_type                    addr_test_type_e  32    ADDR_VALID                                              
#   write_true_flase             write_quality_e   32    WRITE_ADDR_FALSE                                        
#   begin_time                   time              64    166230000                                               
#   depth                        int               32    'd3                                                     
#   parent sequence (name)       string            18    apb_write_send_seq                                      
#   parent sequence (full name)  string            56    uvm_test_top.env.vir_seqr.one_tx_cfg3.apb_write_send_seq
#   sequencer                    string            41    uvm_test_top.env.apb_uvcc.agent.sequencer               
# ---------------------------------------------------------------------------------------------------------------
# 
# UVM_INFO ../apb_uvc/apb_coverage_monitor.sv(95) @ 166270000: uvm_test_top.env.apb_uvcc.agent.monitor [MON] Start TX Triggered
# UVM_INFO ../tb/apb_uart_scoreboard.sv(141) @ 234870000: uvm_test_top.env.scoreboard [SB_UART] UART TX queued: 0x07
# UVM_INFO ../uart_uvc/uart_coverage_monitor.sv(189) @ 234870000: uvm_test_top.env.uart_uvcc.agent.monitor [MON_TX] DATA is monitored from TX: 0x07
# UVM_INFO ../tb/apb_uart_scoreboard.sv(214) @ 234870000: uvm_test_top.env.scoreboard [SB_TX] 
# Match  APB->TXDATA == UART_TX == 0x07 (bits=5)
# UVM_INFO ../apb_uvc/apb_seqs.sv(134) @ 244399000: uvm_test_top.env.apb_uvcc.agent.sequencer@@one_tx_cfg3.stt_seq [read_status_reg_seq] Reading UART Status Register (0x10)
# UVM_INFO ../apb_uvc/apb_driver.sv(52) @ 244450000: uvm_test_top.env.apb_uvcc.agent.driver [apb_driver] APB Transaction:
# ----------------------------------------------------------------------------------------------------
# Name                           Type              Size  Value                                        
# ----------------------------------------------------------------------------------------------------
# req                            apb_transaction   -     @1292                                        
#   paddr                        integral          12    'h10                                         
#   pwdata                       integral          32    'hfc59410f                                   
#   pwrite                       integral          1     'h0                                          
#   pstrb                        integral          4     'h1                                          
#   prdata                       integral          32    'h3                                          
#   pslverr                      integral          1     'h0X                                         
#   addr_type                    addr_test_type_e  32    ADDR_RO                                      
#   write_true_flase             write_quality_e   32    WRITE_ADDR_TRUE                              
#   begin_time                   time              64    244410000                                    
#   depth                        int               32    'd3                                          
#   parent sequence (name)       string            7     stt_seq                                      
#   parent sequence (full name)  string            45    uvm_test_top.env.vir_seqr.one_tx_cfg3.stt_seq
#   sequencer                    string            41    uvm_test_top.env.apb_uvcc.agent.sequencer    
# ----------------------------------------------------------------------------------------------------
# 
# UVM_INFO ../tb/uart_virseqs.sv(163) @ 244450000: uvm_test_top.env.vir_seqr@@one_tx_cfg3 [VSEQ] TX_DONE Detected!
# UVM_INFO ../tb/uart_virseqs.sv(170) @ 244450000: uvm_test_top.env.vir_seqr@@one_tx_cfg3 [VSEQ] ===  TEST COMPLETED ===
# UVM_INFO ../tb/uart_virseqs.sv(882) @ 244450000: uvm_test_top.env.vir_seqr@@vseq_send_TX_sweep_all_cfg_32 [VSEQ_N] 
#####======================== Executing FRAME 3/32 ========================#####
# UVM_INFO ../tb/uart_virseqs.sv(856) @ 244450000: uvm_test_top.env.vir_seqr@@vseq_send_TX_sweep_all_cfg_32 [CFG32] [4/32] APPLY CFG: data=DATA_5BIT stop=STOP_2BIT parity_en=PARITY_DIS parity_type=PARITY_EVEN (GOOD_PARITY)
# UVM_INFO ../tb/uart_virseqs.sv(111) @ 244450000: uvm_test_top.env.vir_seqr@@one_tx_cfg4 [VSEQ] === STARTING  TEST: DUT -> uart UVC ===
# UVM_INFO ../tb/uart_virseqs.sv(67) @ 244450000: uvm_test_top.env.vir_seqr@@one_tx_cfg4.config_vseq [VSEQ] Configuring System using shared object from Test...
# UVM_INFO ../apb_uvc/apb_seqs.sv(62) @ 244450000: uvm_test_top.env.apb_uvcc.agent.sequencer@@apb_seq [APB_WR_SEQ] Writing Config to DUT: 0x00000014 
#  (DATA_5BIT, PARITY_DIS, PARITY_EVEN, STOP_2BIT)
# UVM_INFO ../apb_uvc/apb_driver.sv(52) @ 244510000: uvm_test_top.env.apb_uvcc.agent.driver [apb_driver] APB Transaction:
# --------------------------------------------------------------------------------------------------------
# Name                           Type              Size  Value                                            
# --------------------------------------------------------------------------------------------------------
# req                            apb_transaction   -     @1318                                            
#   paddr                        integral          12    'h8                                              
#   pwdata                       integral          32    'h14                                             
#   pwrite                       integral          1     'h1                                              
#   pstrb                        integral          4     'h1                                              
#   prdata                       integral          32    'h0xxxxxxxx                                      
#   pslverr                      integral          1     'h0X                                             
#   addr_type                    addr_test_type_e  32    ADDR_VALID                                       
#   write_true_flase             write_quality_e   32    WRITE_ADDR_TRUE                                  
#   begin_time                   time              64    244470000                                        
#   depth                        int               32    'd2                                              
#   parent sequence (name)       string            7     apb_seq                                          
#   parent sequence (full name)  string            49    uvm_test_top.env.apb_uvcc.agent.sequencer.apb_seq
#   sequencer                    string            41    uvm_test_top.env.apb_uvcc.agent.sequencer        
# --------------------------------------------------------------------------------------------------------
# 
# UVM_INFO ../apb_uvc/apb_coverage_monitor.sv(94) @ 244510000: uvm_test_top.env.apb_uvcc.agent.monitor [MON] Updating UART Configuration
# UVM_INFO ../tb/apb_uart_scoreboard.sv(112) @ 244510000: uvm_test_top.env.scoreboard [SB_CFG_SYNC] Config updated via APB: DATA_5BIT, STOP_2BIT
# UVM_INFO ../tb/apb_uart_scoreboard.sv(335) @ 244520000: uvm_test_top.env.scoreboard [SB_CFG_HDL] 
# ============CFG Backdoor check PASSED============
# UVM_INFO ../tb/uart_virseqs.sv(82) @ 244710000: uvm_test_top.env.vir_seqr@@one_tx_cfg4.config_vseq [VSEQ] UART Driver remains IDLE (TX Only Mode)
# UVM_INFO ../tb/uart_virseqs.sv(40) @ 244710000: uvm_test_top.env.vir_seqr@@one_tx_cfg4 [VSEQ] 
#####===NUM DATA BIT = DATA_5BIT, NUM STOP BIT = STOP_2BIT, PARITY EN = PARITY_DIS, PARITY TYPE = PARITY_EVEN===#####
# UVM_INFO ../tb/uart_virseqs.sv(139) @ 244710000: uvm_test_top.env.vir_seqr@@one_tx_cfg4 [VSEQ] 
#####===Calculation: Data=8 bits, Baud=115200, Tbit=8680.56ns===#####
# UVM_INFO ../apb_uvc/apb_seqs.sv(88) @ 244710000: uvm_test_top.env.apb_uvcc.agent.sequencer@@one_tx_cfg4.apb_write_send_seq [send_tx_data_seq] Send TX with data: 0x7e
# UVM_INFO ../apb_uvc/apb_driver.sv(52) @ 244770000: uvm_test_top.env.apb_uvcc.agent.driver [apb_driver] APB Transaction:
# ---------------------------------------------------------------------------------------------------------------
# Name                           Type              Size  Value                                                   
# ---------------------------------------------------------------------------------------------------------------
# req                            apb_transaction   -     @1330                                                   
#   paddr                        integral          12    'h0                                                     
#   pwdata                       integral          32    'h7e                                                    
#   pwrite                       integral          1     'h1                                                     
#   pstrb                        integral          4     'h1                                                     
#   prdata                       integral          32    'h0xxxxxxxx                                             
#   pslverr                      integral          1     'h0X                                                    
#   addr_type                    addr_test_type_e  32    ADDR_VALID                                              
#   write_true_flase             write_quality_e   32    WRITE_ADDR_TRUE                                         
#   begin_time                   time              64    244730000                                               
#   depth                        int               32    'd3                                                     
#   parent sequence (name)       string            18    apb_write_send_seq                                      
#   parent sequence (full name)  string            56    uvm_test_top.env.vir_seqr.one_tx_cfg4.apb_write_send_seq
#   sequencer                    string            41    uvm_test_top.env.apb_uvcc.agent.sequencer               
# ---------------------------------------------------------------------------------------------------------------
# 
# UVM_INFO ../apb_uvc/apb_coverage_monitor.sv(93) @ 244770000: uvm_test_top.env.apb_uvcc.agent.monitor [MON] Writing TX Data: 0x7e
# UVM_INFO ../tb/apb_uart_scoreboard.sv(89) @ 244770000: uvm_test_top.env.scoreboard [SB_APB] APB->TXDATA queued: 0x7e
# UVM_INFO ../apb_uvc/apb_driver.sv(52) @ 244830000: uvm_test_top.env.apb_uvcc.agent.driver [apb_driver] APB Transaction:
# ---------------------------------------------------------------------------------------------------------------
# Name                           Type              Size  Value                                                   
# ---------------------------------------------------------------------------------------------------------------
# req                            apb_transaction   -     @1338                                                   
#   paddr                        integral          12    'hc                                                     
#   pwdata                       integral          32    'h1                                                     
#   pwrite                       integral          1     'h1                                                     
#   pstrb                        integral          4     'h1                                                     
#   prdata                       integral          32    'h0xxxxxxxx                                             
#   pslverr                      integral          1     'h0X                                                    
#   addr_type                    addr_test_type_e  32    ADDR_VALID                                              
#   write_true_flase             write_quality_e   32    WRITE_ADDR_TRUE                                         
#   begin_time                   time              64    244790000                                               
#   depth                        int               32    'd3                                                     
#   parent sequence (name)       string            18    apb_write_send_seq                                      
#   parent sequence (full name)  string            56    uvm_test_top.env.vir_seqr.one_tx_cfg4.apb_write_send_seq
#   sequencer                    string            41    uvm_test_top.env.apb_uvcc.agent.sequencer               
# ---------------------------------------------------------------------------------------------------------------
# 
# UVM_INFO ../apb_uvc/apb_coverage_monitor.sv(95) @ 244830000: uvm_test_top.env.apb_uvcc.agent.monitor [MON] Start TX Triggered
# UVM_INFO ../tb/apb_uart_scoreboard.sv(141) @ 321850000: uvm_test_top.env.scoreboard [SB_UART] UART TX queued: 0x1e
# UVM_INFO ../uart_uvc/uart_coverage_monitor.sv(189) @ 321850000: uvm_test_top.env.uart_uvcc.agent.monitor [MON_TX] DATA is monitored from TX: 0x1e
# UVM_INFO ../tb/apb_uart_scoreboard.sv(214) @ 321850000: uvm_test_top.env.scoreboard [SB_TX] 
# Match  APB->TXDATA == UART_TX == 0x1e (bits=5)
# UVM_INFO ../apb_uvc/apb_seqs.sv(134) @ 331640000: uvm_test_top.env.apb_uvcc.agent.sequencer@@one_tx_cfg4.stt_seq [read_status_reg_seq] Reading UART Status Register (0x10)
# UVM_INFO ../apb_uvc/apb_driver.sv(52) @ 331690000: uvm_test_top.env.apb_uvcc.agent.driver [apb_driver] APB Transaction:
# ----------------------------------------------------------------------------------------------------
# Name                           Type              Size  Value                                        
# ----------------------------------------------------------------------------------------------------
# req                            apb_transaction   -     @1358                                        
#   paddr                        integral          12    'h10                                         
#   pwdata                       integral          32    'ha593696d                                   
#   pwrite                       integral          1     'h0                                          
#   pstrb                        integral          4     'h1                                          
#   prdata                       integral          32    'h3                                          
#   pslverr                      integral          1     'h0X                                         
#   addr_type                    addr_test_type_e  32    ADDR_RO                                      
#   write_true_flase             write_quality_e   32    WRITE_ADDR_FALSE                             
#   begin_time                   time              64    331650000                                    
#   depth                        int               32    'd3                                          
#   parent sequence (name)       string            7     stt_seq                                      
#   parent sequence (full name)  string            45    uvm_test_top.env.vir_seqr.one_tx_cfg4.stt_seq
#   sequencer                    string            41    uvm_test_top.env.apb_uvcc.agent.sequencer    
# ----------------------------------------------------------------------------------------------------
# 
# UVM_INFO ../tb/uart_virseqs.sv(163) @ 331690000: uvm_test_top.env.vir_seqr@@one_tx_cfg4 [VSEQ] TX_DONE Detected!
# UVM_INFO ../tb/uart_virseqs.sv(170) @ 331690000: uvm_test_top.env.vir_seqr@@one_tx_cfg4 [VSEQ] ===  TEST COMPLETED ===
# UVM_INFO ../tb/uart_virseqs.sv(882) @ 331690000: uvm_test_top.env.vir_seqr@@vseq_send_TX_sweep_all_cfg_32 [VSEQ_N] 
#####======================== Executing FRAME 4/32 ========================#####
# UVM_INFO ../tb/uart_virseqs.sv(856) @ 331690000: uvm_test_top.env.vir_seqr@@vseq_send_TX_sweep_all_cfg_32 [CFG32] [5/32] APPLY CFG: data=DATA_5BIT stop=STOP_1BIT parity_en=PARITY_EN parity_type=PARITY_ODD (GOOD_PARITY)
# UVM_INFO ../tb/uart_virseqs.sv(111) @ 331690000: uvm_test_top.env.vir_seqr@@one_tx_cfg5 [VSEQ] === STARTING  TEST: DUT -> uart UVC ===
# UVM_INFO ../tb/uart_virseqs.sv(67) @ 331690000: uvm_test_top.env.vir_seqr@@one_tx_cfg5.config_vseq [VSEQ] Configuring System using shared object from Test...
# UVM_INFO ../apb_uvc/apb_seqs.sv(62) @ 331690000: uvm_test_top.env.apb_uvcc.agent.sequencer@@apb_seq [APB_WR_SEQ] Writing Config to DUT: 0x00000008 
#  (DATA_5BIT, PARITY_EN, PARITY_ODD, STOP_1BIT)
# UVM_INFO ../apb_uvc/apb_driver.sv(52) @ 331750000: uvm_test_top.env.apb_uvcc.agent.driver [apb_driver] APB Transaction:
# --------------------------------------------------------------------------------------------------------
# Name                           Type              Size  Value                                            
# --------------------------------------------------------------------------------------------------------
# req                            apb_transaction   -     @1384                                            
#   paddr                        integral          12    'h8                                              
#   pwdata                       integral          32    'h8                                              
#   pwrite                       integral          1     'h1                                              
#   pstrb                        integral          4     'h1                                              
#   prdata                       integral          32    'h0xxxxxxxx                                      
#   pslverr                      integral          1     'h0X                                             
#   addr_type                    addr_test_type_e  32    ADDR_VALID                                       
#   write_true_flase             write_quality_e   32    WRITE_ADDR_FALSE                                 
#   begin_time                   time              64    331710000                                        
#   depth                        int               32    'd2                                              
#   parent sequence (name)       string            7     apb_seq                                          
#   parent sequence (full name)  string            49    uvm_test_top.env.apb_uvcc.agent.sequencer.apb_seq
#   sequencer                    string            41    uvm_test_top.env.apb_uvcc.agent.sequencer        
# --------------------------------------------------------------------------------------------------------
# 
# UVM_INFO ../apb_uvc/apb_coverage_monitor.sv(94) @ 331750000: uvm_test_top.env.apb_uvcc.agent.monitor [MON] Updating UART Configuration
# UVM_INFO ../tb/apb_uart_scoreboard.sv(112) @ 331750000: uvm_test_top.env.scoreboard [SB_CFG_SYNC] Config updated via APB: DATA_5BIT, STOP_1BIT
# UVM_INFO ../tb/apb_uart_scoreboard.sv(335) @ 331760000: uvm_test_top.env.scoreboard [SB_CFG_HDL] 
# ============CFG Backdoor check PASSED============
# UVM_INFO ../tb/uart_virseqs.sv(82) @ 331950000: uvm_test_top.env.vir_seqr@@one_tx_cfg5.config_vseq [VSEQ] UART Driver remains IDLE (TX Only Mode)
# UVM_INFO ../tb/uart_virseqs.sv(40) @ 331950000: uvm_test_top.env.vir_seqr@@one_tx_cfg5 [VSEQ] 
#####===NUM DATA BIT = DATA_5BIT, NUM STOP BIT = STOP_1BIT, PARITY EN = PARITY_EN, PARITY TYPE = PARITY_ODD===#####
# UVM_INFO ../tb/uart_virseqs.sv(139) @ 331950000: uvm_test_top.env.vir_seqr@@one_tx_cfg5 [VSEQ] 
#####===Calculation: Data=8 bits, Baud=115200, Tbit=8680.56ns===#####
# UVM_INFO ../apb_uvc/apb_seqs.sv(88) @ 331950000: uvm_test_top.env.apb_uvcc.agent.sequencer@@one_tx_cfg5.apb_write_send_seq [send_tx_data_seq] Send TX with data: 0xf6
# UVM_INFO ../apb_uvc/apb_driver.sv(52) @ 332010000: uvm_test_top.env.apb_uvcc.agent.driver [apb_driver] APB Transaction:
# ---------------------------------------------------------------------------------------------------------------
# Name                           Type              Size  Value                                                   
# ---------------------------------------------------------------------------------------------------------------
# req                            apb_transaction   -     @1396                                                   
#   paddr                        integral          12    'h0                                                     
#   pwdata                       integral          32    'hf6                                                    
#   pwrite                       integral          1     'h1                                                     
#   pstrb                        integral          4     'h1                                                     
#   prdata                       integral          32    'h0xxxxxxxx                                             
#   pslverr                      integral          1     'h0X                                                    
#   addr_type                    addr_test_type_e  32    ADDR_VALID                                              
#   write_true_flase             write_quality_e   32    WRITE_ADDR_FALSE                                        
#   begin_time                   time              64    331970000                                               
#   depth                        int               32    'd3                                                     
#   parent sequence (name)       string            18    apb_write_send_seq                                      
#   parent sequence (full name)  string            56    uvm_test_top.env.vir_seqr.one_tx_cfg5.apb_write_send_seq
#   sequencer                    string            41    uvm_test_top.env.apb_uvcc.agent.sequencer               
# ---------------------------------------------------------------------------------------------------------------
# 
# UVM_INFO ../apb_uvc/apb_coverage_monitor.sv(93) @ 332010000: uvm_test_top.env.apb_uvcc.agent.monitor [MON] Writing TX Data: 0xf6
# UVM_INFO ../tb/apb_uart_scoreboard.sv(89) @ 332010000: uvm_test_top.env.scoreboard [SB_APB] APB->TXDATA queued: 0xf6
# UVM_INFO ../apb_uvc/apb_driver.sv(52) @ 332070000: uvm_test_top.env.apb_uvcc.agent.driver [apb_driver] APB Transaction:
# ---------------------------------------------------------------------------------------------------------------
# Name                           Type              Size  Value                                                   
# ---------------------------------------------------------------------------------------------------------------
# req                            apb_transaction   -     @1404                                                   
#   paddr                        integral          12    'hc                                                     
#   pwdata                       integral          32    'h1                                                     
#   pwrite                       integral          1     'h1                                                     
#   pstrb                        integral          4     'h1                                                     
#   prdata                       integral          32    'h0xxxxxxxx                                             
#   pslverr                      integral          1     'h0X                                                    
#   addr_type                    addr_test_type_e  32    ADDR_VALID                                              
#   write_true_flase             write_quality_e   32    WRITE_ADDR_FALSE                                        
#   begin_time                   time              64    332030000                                               
#   depth                        int               32    'd3                                                     
#   parent sequence (name)       string            18    apb_write_send_seq                                      
#   parent sequence (full name)  string            56    uvm_test_top.env.vir_seqr.one_tx_cfg5.apb_write_send_seq
#   sequencer                    string            41    uvm_test_top.env.apb_uvcc.agent.sequencer               
# ---------------------------------------------------------------------------------------------------------------
# 
# UVM_INFO ../apb_uvc/apb_coverage_monitor.sv(95) @ 332070000: uvm_test_top.env.apb_uvcc.agent.monitor [MON] Start TX Triggered
# UVM_INFO ../tb/apb_uart_scoreboard.sv(141) @ 408850000: uvm_test_top.env.scoreboard [SB_UART] UART TX queued: 0x16
# UVM_INFO ../uart_uvc/uart_coverage_monitor.sv(189) @ 408850000: uvm_test_top.env.uart_uvcc.agent.monitor [MON_TX] DATA is monitored from TX: 0x16
# UVM_INFO ../tb/apb_uart_scoreboard.sv(214) @ 408850000: uvm_test_top.env.scoreboard [SB_TX] 
# Match  APB->TXDATA == UART_TX == 0x16 (bits=5)
# UVM_INFO ../apb_uvc/apb_seqs.sv(134) @ 418880000: uvm_test_top.env.apb_uvcc.agent.sequencer@@one_tx_cfg5.stt_seq [read_status_reg_seq] Reading UART Status Register (0x10)
# UVM_INFO ../apb_uvc/apb_driver.sv(52) @ 418930000: uvm_test_top.env.apb_uvcc.agent.driver [apb_driver] APB Transaction:
# ----------------------------------------------------------------------------------------------------
# Name                           Type              Size  Value                                        
# ----------------------------------------------------------------------------------------------------
# req                            apb_transaction   -     @1424                                        
#   paddr                        integral          12    'h10                                         
#   pwdata                       integral          32    'h22291606                                   
#   pwrite                       integral          1     'h0                                          
#   pstrb                        integral          4     'h1                                          
#   prdata                       integral          32    'h3                                          
#   pslverr                      integral          1     'h0X                                         
#   addr_type                    addr_test_type_e  32    ADDR_RO                                      
#   write_true_flase             write_quality_e   32    WRITE_ADDR_TRUE                              
#   begin_time                   time              64    418890000                                    
#   depth                        int               32    'd3                                          
#   parent sequence (name)       string            7     stt_seq                                      
#   parent sequence (full name)  string            45    uvm_test_top.env.vir_seqr.one_tx_cfg5.stt_seq
#   sequencer                    string            41    uvm_test_top.env.apb_uvcc.agent.sequencer    
# ----------------------------------------------------------------------------------------------------
# 
# UVM_INFO ../tb/uart_virseqs.sv(163) @ 418930000: uvm_test_top.env.vir_seqr@@one_tx_cfg5 [VSEQ] TX_DONE Detected!
# UVM_INFO ../tb/uart_virseqs.sv(170) @ 418930000: uvm_test_top.env.vir_seqr@@one_tx_cfg5 [VSEQ] ===  TEST COMPLETED ===
# UVM_INFO ../tb/uart_virseqs.sv(882) @ 418930000: uvm_test_top.env.vir_seqr@@vseq_send_TX_sweep_all_cfg_32 [VSEQ_N] 
#####======================== Executing FRAME 5/32 ========================#####
# UVM_INFO ../tb/uart_virseqs.sv(856) @ 418930000: uvm_test_top.env.vir_seqr@@vseq_send_TX_sweep_all_cfg_32 [CFG32] [6/32] APPLY CFG: data=DATA_5BIT stop=STOP_2BIT parity_en=PARITY_EN parity_type=PARITY_ODD (GOOD_PARITY)
# UVM_INFO ../tb/uart_virseqs.sv(111) @ 418930000: uvm_test_top.env.vir_seqr@@one_tx_cfg6 [VSEQ] === STARTING  TEST: DUT -> uart UVC ===
# UVM_INFO ../tb/uart_virseqs.sv(67) @ 418930000: uvm_test_top.env.vir_seqr@@one_tx_cfg6.config_vseq [VSEQ] Configuring System using shared object from Test...
# UVM_INFO ../apb_uvc/apb_seqs.sv(62) @ 418930000: uvm_test_top.env.apb_uvcc.agent.sequencer@@apb_seq [APB_WR_SEQ] Writing Config to DUT: 0x0000000c 
#  (DATA_5BIT, PARITY_EN, PARITY_ODD, STOP_2BIT)
# UVM_INFO ../apb_uvc/apb_driver.sv(52) @ 418990000: uvm_test_top.env.apb_uvcc.agent.driver [apb_driver] APB Transaction:
# --------------------------------------------------------------------------------------------------------
# Name                           Type              Size  Value                                            
# --------------------------------------------------------------------------------------------------------
# req                            apb_transaction   -     @1450                                            
#   paddr                        integral          12    'h8                                              
#   pwdata                       integral          32    'hc                                              
#   pwrite                       integral          1     'h1                                              
#   pstrb                        integral          4     'h1                                              
#   prdata                       integral          32    'h0xxxxxxxx                                      
#   pslverr                      integral          1     'h0X                                             
#   addr_type                    addr_test_type_e  32    ADDR_VALID                                       
#   write_true_flase             write_quality_e   32    WRITE_ADDR_FALSE                                 
#   begin_time                   time              64    418950000                                        
#   depth                        int               32    'd2                                              
#   parent sequence (name)       string            7     apb_seq                                          
#   parent sequence (full name)  string            49    uvm_test_top.env.apb_uvcc.agent.sequencer.apb_seq
#   sequencer                    string            41    uvm_test_top.env.apb_uvcc.agent.sequencer        
# --------------------------------------------------------------------------------------------------------
# 
# UVM_INFO ../apb_uvc/apb_coverage_monitor.sv(94) @ 418990000: uvm_test_top.env.apb_uvcc.agent.monitor [MON] Updating UART Configuration
# UVM_INFO ../tb/apb_uart_scoreboard.sv(112) @ 418990000: uvm_test_top.env.scoreboard [SB_CFG_SYNC] Config updated via APB: DATA_5BIT, STOP_2BIT
# UVM_INFO ../tb/apb_uart_scoreboard.sv(335) @ 419000000: uvm_test_top.env.scoreboard [SB_CFG_HDL] 
# ============CFG Backdoor check PASSED============
# UVM_INFO ../tb/uart_virseqs.sv(82) @ 419190000: uvm_test_top.env.vir_seqr@@one_tx_cfg6.config_vseq [VSEQ] UART Driver remains IDLE (TX Only Mode)
# UVM_INFO ../tb/uart_virseqs.sv(40) @ 419190000: uvm_test_top.env.vir_seqr@@one_tx_cfg6 [VSEQ] 
#####===NUM DATA BIT = DATA_5BIT, NUM STOP BIT = STOP_2BIT, PARITY EN = PARITY_EN, PARITY TYPE = PARITY_ODD===#####
# UVM_INFO ../tb/uart_virseqs.sv(139) @ 419190000: uvm_test_top.env.vir_seqr@@one_tx_cfg6 [VSEQ] 
#####===Calculation: Data=9 bits, Baud=115200, Tbit=8680.56ns===#####
# UVM_INFO ../apb_uvc/apb_seqs.sv(88) @ 419190000: uvm_test_top.env.apb_uvcc.agent.sequencer@@one_tx_cfg6.apb_write_send_seq [send_tx_data_seq] Send TX with data: 0x6
# UVM_INFO ../apb_uvc/apb_driver.sv(52) @ 419250000: uvm_test_top.env.apb_uvcc.agent.driver [apb_driver] APB Transaction:
# ---------------------------------------------------------------------------------------------------------------
# Name                           Type              Size  Value                                                   
# ---------------------------------------------------------------------------------------------------------------
# req                            apb_transaction   -     @1462                                                   
#   paddr                        integral          12    'h0                                                     
#   pwdata                       integral          32    'h6                                                     
#   pwrite                       integral          1     'h1                                                     
#   pstrb                        integral          4     'h1                                                     
#   prdata                       integral          32    'h0xxxxxxxx                                             
#   pslverr                      integral          1     'h0X                                                    
#   addr_type                    addr_test_type_e  32    ADDR_VALID                                              
#   write_true_flase             write_quality_e   32    WRITE_ADDR_FALSE                                        
#   begin_time                   time              64    419210000                                               
#   depth                        int               32    'd3                                                     
#   parent sequence (name)       string            18    apb_write_send_seq                                      
#   parent sequence (full name)  string            56    uvm_test_top.env.vir_seqr.one_tx_cfg6.apb_write_send_seq
#   sequencer                    string            41    uvm_test_top.env.apb_uvcc.agent.sequencer               
# ---------------------------------------------------------------------------------------------------------------
# 
# UVM_INFO ../apb_uvc/apb_coverage_monitor.sv(93) @ 419250000: uvm_test_top.env.apb_uvcc.agent.monitor [MON] Writing TX Data: 0x06
# UVM_INFO ../tb/apb_uart_scoreboard.sv(89) @ 419250000: uvm_test_top.env.scoreboard [SB_APB] APB->TXDATA queued: 0x06
# UVM_INFO ../apb_uvc/apb_driver.sv(52) @ 419310000: uvm_test_top.env.apb_uvcc.agent.driver [apb_driver] APB Transaction:
# ---------------------------------------------------------------------------------------------------------------
# Name                           Type              Size  Value                                                   
# ---------------------------------------------------------------------------------------------------------------
# req                            apb_transaction   -     @1470                                                   
#   paddr                        integral          12    'hc                                                     
#   pwdata                       integral          32    'h1                                                     
#   pwrite                       integral          1     'h1                                                     
#   pstrb                        integral          4     'h1                                                     
#   prdata                       integral          32    'h0xxxxxxxx                                             
#   pslverr                      integral          1     'h0X                                                    
#   addr_type                    addr_test_type_e  32    ADDR_VALID                                              
#   write_true_flase             write_quality_e   32    WRITE_ADDR_FALSE                                        
#   begin_time                   time              64    419270000                                               
#   depth                        int               32    'd3                                                     
#   parent sequence (name)       string            18    apb_write_send_seq                                      
#   parent sequence (full name)  string            56    uvm_test_top.env.vir_seqr.one_tx_cfg6.apb_write_send_seq
#   sequencer                    string            41    uvm_test_top.env.apb_uvcc.agent.sequencer               
# ---------------------------------------------------------------------------------------------------------------
# 
# UVM_INFO ../apb_uvc/apb_coverage_monitor.sv(95) @ 419310000: uvm_test_top.env.apb_uvcc.agent.monitor [MON] Start TX Triggered
# UVM_INFO ../tb/apb_uart_scoreboard.sv(141) @ 504530000: uvm_test_top.env.scoreboard [SB_UART] UART TX queued: 0x06
# UVM_INFO ../uart_uvc/uart_coverage_monitor.sv(189) @ 504530000: uvm_test_top.env.uart_uvcc.agent.monitor [MON_TX] DATA is monitored from TX: 0x06
# UVM_INFO ../tb/apb_uart_scoreboard.sv(214) @ 504530000: uvm_test_top.env.scoreboard [SB_TX] 
# Match  APB->TXDATA == UART_TX == 0x06 (bits=5)
# UVM_INFO ../apb_uvc/apb_seqs.sv(134) @ 514801000: uvm_test_top.env.apb_uvcc.agent.sequencer@@one_tx_cfg6.stt_seq [read_status_reg_seq] Reading UART Status Register (0x10)
# UVM_INFO ../apb_uvc/apb_driver.sv(52) @ 514850000: uvm_test_top.env.apb_uvcc.agent.driver [apb_driver] APB Transaction:
# ----------------------------------------------------------------------------------------------------
# Name                           Type              Size  Value                                        
# ----------------------------------------------------------------------------------------------------
# req                            apb_transaction   -     @1490                                        
#   paddr                        integral          12    'h10                                         
#   pwdata                       integral          32    'h63d0abba                                   
#   pwrite                       integral          1     'h0                                          
#   pstrb                        integral          4     'h1                                          
#   prdata                       integral          32    'h3                                          
#   pslverr                      integral          1     'h0X                                         
#   addr_type                    addr_test_type_e  32    ADDR_RO                                      
#   write_true_flase             write_quality_e   32    WRITE_ADDR_FALSE                             
#   begin_time                   time              64    514810000                                    
#   depth                        int               32    'd3                                          
#   parent sequence (name)       string            7     stt_seq                                      
#   parent sequence (full name)  string            45    uvm_test_top.env.vir_seqr.one_tx_cfg6.stt_seq
#   sequencer                    string            41    uvm_test_top.env.apb_uvcc.agent.sequencer    
# ----------------------------------------------------------------------------------------------------
# 
# UVM_INFO ../tb/uart_virseqs.sv(163) @ 514850000: uvm_test_top.env.vir_seqr@@one_tx_cfg6 [VSEQ] TX_DONE Detected!
# UVM_INFO ../tb/uart_virseqs.sv(170) @ 514850000: uvm_test_top.env.vir_seqr@@one_tx_cfg6 [VSEQ] ===  TEST COMPLETED ===
# UVM_INFO ../tb/uart_virseqs.sv(882) @ 514850000: uvm_test_top.env.vir_seqr@@vseq_send_TX_sweep_all_cfg_32 [VSEQ_N] 
#####======================== Executing FRAME 6/32 ========================#####
# UVM_INFO ../tb/uart_virseqs.sv(856) @ 514850000: uvm_test_top.env.vir_seqr@@vseq_send_TX_sweep_all_cfg_32 [CFG32] [7/32] APPLY CFG: data=DATA_5BIT stop=STOP_1BIT parity_en=PARITY_EN parity_type=PARITY_EVEN (GOOD_PARITY)
# UVM_INFO ../tb/uart_virseqs.sv(111) @ 514850000: uvm_test_top.env.vir_seqr@@one_tx_cfg7 [VSEQ] === STARTING  TEST: DUT -> uart UVC ===
# UVM_INFO ../tb/uart_virseqs.sv(67) @ 514850000: uvm_test_top.env.vir_seqr@@one_tx_cfg7.config_vseq [VSEQ] Configuring System using shared object from Test...
# UVM_INFO ../apb_uvc/apb_seqs.sv(62) @ 514850000: uvm_test_top.env.apb_uvcc.agent.sequencer@@apb_seq [APB_WR_SEQ] Writing Config to DUT: 0x00000018 
#  (DATA_5BIT, PARITY_EN, PARITY_EVEN, STOP_1BIT)
# UVM_INFO ../apb_uvc/apb_driver.sv(52) @ 514910000: uvm_test_top.env.apb_uvcc.agent.driver [apb_driver] APB Transaction:
# --------------------------------------------------------------------------------------------------------
# Name                           Type              Size  Value                                            
# --------------------------------------------------------------------------------------------------------
# req                            apb_transaction   -     @1516                                            
#   paddr                        integral          12    'h8                                              
#   pwdata                       integral          32    'h18                                             
#   pwrite                       integral          1     'h1                                              
#   pstrb                        integral          4     'h1                                              
#   prdata                       integral          32    'h0xxxxxxxx                                      
#   pslverr                      integral          1     'h0X                                             
#   addr_type                    addr_test_type_e  32    ADDR_VALID                                       
#   write_true_flase             write_quality_e   32    WRITE_ADDR_TRUE                                  
#   begin_time                   time              64    514870000                                        
#   depth                        int               32    'd2                                              
#   parent sequence (name)       string            7     apb_seq                                          
#   parent sequence (full name)  string            49    uvm_test_top.env.apb_uvcc.agent.sequencer.apb_seq
#   sequencer                    string            41    uvm_test_top.env.apb_uvcc.agent.sequencer        
# --------------------------------------------------------------------------------------------------------
# 
# UVM_INFO ../apb_uvc/apb_coverage_monitor.sv(94) @ 514910000: uvm_test_top.env.apb_uvcc.agent.monitor [MON] Updating UART Configuration
# UVM_INFO ../tb/apb_uart_scoreboard.sv(112) @ 514910000: uvm_test_top.env.scoreboard [SB_CFG_SYNC] Config updated via APB: DATA_5BIT, STOP_1BIT
# UVM_INFO ../tb/apb_uart_scoreboard.sv(335) @ 514920000: uvm_test_top.env.scoreboard [SB_CFG_HDL] 
# ============CFG Backdoor check PASSED============
# UVM_INFO ../tb/uart_virseqs.sv(82) @ 515110000: uvm_test_top.env.vir_seqr@@one_tx_cfg7.config_vseq [VSEQ] UART Driver remains IDLE (TX Only Mode)
# UVM_INFO ../tb/uart_virseqs.sv(40) @ 515110000: uvm_test_top.env.vir_seqr@@one_tx_cfg7 [VSEQ] 
#####===NUM DATA BIT = DATA_5BIT, NUM STOP BIT = STOP_1BIT, PARITY EN = PARITY_EN, PARITY TYPE = PARITY_EVEN===#####
# UVM_INFO ../tb/uart_virseqs.sv(139) @ 515110000: uvm_test_top.env.vir_seqr@@one_tx_cfg7 [VSEQ] 
#####===Calculation: Data=8 bits, Baud=115200, Tbit=8680.56ns===#####
# UVM_INFO ../apb_uvc/apb_seqs.sv(88) @ 515110000: uvm_test_top.env.apb_uvcc.agent.sequencer@@one_tx_cfg7.apb_write_send_seq [send_tx_data_seq] Send TX with data: 0x30
# UVM_INFO ../apb_uvc/apb_driver.sv(52) @ 515170000: uvm_test_top.env.apb_uvcc.agent.driver [apb_driver] APB Transaction:
# ---------------------------------------------------------------------------------------------------------------
# Name                           Type              Size  Value                                                   
# ---------------------------------------------------------------------------------------------------------------
# req                            apb_transaction   -     @1528                                                   
#   paddr                        integral          12    'h0                                                     
#   pwdata                       integral          32    'h30                                                    
#   pwrite                       integral          1     'h1                                                     
#   pstrb                        integral          4     'h1                                                     
#   prdata                       integral          32    'h0xxxxxxxx                                             
#   pslverr                      integral          1     'h0X                                                    
#   addr_type                    addr_test_type_e  32    ADDR_VALID                                              
#   write_true_flase             write_quality_e   32    WRITE_ADDR_FALSE                                        
#   begin_time                   time              64    515130000                                               
#   depth                        int               32    'd3                                                     
#   parent sequence (name)       string            18    apb_write_send_seq                                      
#   parent sequence (full name)  string            56    uvm_test_top.env.vir_seqr.one_tx_cfg7.apb_write_send_seq
#   sequencer                    string            41    uvm_test_top.env.apb_uvcc.agent.sequencer               
# ---------------------------------------------------------------------------------------------------------------
# 
# UVM_INFO ../apb_uvc/apb_coverage_monitor.sv(93) @ 515170000: uvm_test_top.env.apb_uvcc.agent.monitor [MON] Writing TX Data: 0x30
# UVM_INFO ../tb/apb_uart_scoreboard.sv(89) @ 515170000: uvm_test_top.env.scoreboard [SB_APB] APB->TXDATA queued: 0x30
# UVM_INFO ../apb_uvc/apb_driver.sv(52) @ 515230000: uvm_test_top.env.apb_uvcc.agent.driver [apb_driver] APB Transaction:
# ---------------------------------------------------------------------------------------------------------------
# Name                           Type              Size  Value                                                   
# ---------------------------------------------------------------------------------------------------------------
# req                            apb_transaction   -     @1536                                                   
#   paddr                        integral          12    'hc                                                     
#   pwdata                       integral          32    'h1                                                     
#   pwrite                       integral          1     'h1                                                     
#   pstrb                        integral          4     'h1                                                     
#   prdata                       integral          32    'h0xxxxxxxx                                             
#   pslverr                      integral          1     'h0X                                                    
#   addr_type                    addr_test_type_e  32    ADDR_VALID                                              
#   write_true_flase             write_quality_e   32    WRITE_ADDR_TRUE                                         
#   begin_time                   time              64    515190000                                               
#   depth                        int               32    'd3                                                     
#   parent sequence (name)       string            18    apb_write_send_seq                                      
#   parent sequence (full name)  string            56    uvm_test_top.env.vir_seqr.one_tx_cfg7.apb_write_send_seq
#   sequencer                    string            41    uvm_test_top.env.apb_uvcc.agent.sequencer               
# ---------------------------------------------------------------------------------------------------------------
# 
# UVM_INFO ../apb_uvc/apb_coverage_monitor.sv(95) @ 515230000: uvm_test_top.env.apb_uvcc.agent.monitor [MON] Start TX Triggered
# UVM_INFO ../tb/apb_uart_scoreboard.sv(141) @ 591550000: uvm_test_top.env.scoreboard [SB_UART] UART TX queued: 0x10
# UVM_INFO ../uart_uvc/uart_coverage_monitor.sv(189) @ 591550000: uvm_test_top.env.uart_uvcc.agent.monitor [MON_TX] DATA is monitored from TX: 0x10
# UVM_INFO ../tb/apb_uart_scoreboard.sv(214) @ 591550000: uvm_test_top.env.scoreboard [SB_TX] 
# Match  APB->TXDATA == UART_TX == 0x10 (bits=5)
# UVM_INFO ../apb_uvc/apb_seqs.sv(134) @ 602040000: uvm_test_top.env.apb_uvcc.agent.sequencer@@one_tx_cfg7.stt_seq [read_status_reg_seq] Reading UART Status Register (0x10)
# UVM_INFO ../apb_uvc/apb_driver.sv(52) @ 602090000: uvm_test_top.env.apb_uvcc.agent.driver [apb_driver] APB Transaction:
# ----------------------------------------------------------------------------------------------------
# Name                           Type              Size  Value                                        
# ----------------------------------------------------------------------------------------------------
# req                            apb_transaction   -     @1556                                        
#   paddr                        integral          12    'h10                                         
#   pwdata                       integral          32    'hf8d7fd4a                                   
#   pwrite                       integral          1     'h0                                          
#   pstrb                        integral          4     'h1                                          
#   prdata                       integral          32    'h3                                          
#   pslverr                      integral          1     'h0X                                         
#   addr_type                    addr_test_type_e  32    ADDR_RO                                      
#   write_true_flase             write_quality_e   32    WRITE_ADDR_FALSE                             
#   begin_time                   time              64    602050000                                    
#   depth                        int               32    'd3                                          
#   parent sequence (name)       string            7     stt_seq                                      
#   parent sequence (full name)  string            45    uvm_test_top.env.vir_seqr.one_tx_cfg7.stt_seq
#   sequencer                    string            41    uvm_test_top.env.apb_uvcc.agent.sequencer    
# ----------------------------------------------------------------------------------------------------
# 
# UVM_INFO ../tb/uart_virseqs.sv(163) @ 602090000: uvm_test_top.env.vir_seqr@@one_tx_cfg7 [VSEQ] TX_DONE Detected!
# UVM_INFO ../tb/uart_virseqs.sv(170) @ 602090000: uvm_test_top.env.vir_seqr@@one_tx_cfg7 [VSEQ] ===  TEST COMPLETED ===
# UVM_INFO ../tb/uart_virseqs.sv(882) @ 602090000: uvm_test_top.env.vir_seqr@@vseq_send_TX_sweep_all_cfg_32 [VSEQ_N] 
#####======================== Executing FRAME 7/32 ========================#####
# UVM_INFO ../tb/uart_virseqs.sv(856) @ 602090000: uvm_test_top.env.vir_seqr@@vseq_send_TX_sweep_all_cfg_32 [CFG32] [8/32] APPLY CFG: data=DATA_5BIT stop=STOP_2BIT parity_en=PARITY_EN parity_type=PARITY_EVEN (GOOD_PARITY)
# UVM_INFO ../tb/uart_virseqs.sv(111) @ 602090000: uvm_test_top.env.vir_seqr@@one_tx_cfg8 [VSEQ] === STARTING  TEST: DUT -> uart UVC ===
# UVM_INFO ../tb/uart_virseqs.sv(67) @ 602090000: uvm_test_top.env.vir_seqr@@one_tx_cfg8.config_vseq [VSEQ] Configuring System using shared object from Test...
# UVM_INFO ../apb_uvc/apb_seqs.sv(62) @ 602090000: uvm_test_top.env.apb_uvcc.agent.sequencer@@apb_seq [APB_WR_SEQ] Writing Config to DUT: 0x0000001c 
#  (DATA_5BIT, PARITY_EN, PARITY_EVEN, STOP_2BIT)
# UVM_INFO ../apb_uvc/apb_driver.sv(52) @ 602150000: uvm_test_top.env.apb_uvcc.agent.driver [apb_driver] APB Transaction:
# --------------------------------------------------------------------------------------------------------
# Name                           Type              Size  Value                                            
# --------------------------------------------------------------------------------------------------------
# req                            apb_transaction   -     @1582                                            
#   paddr                        integral          12    'h8                                              
#   pwdata                       integral          32    'h1c                                             
#   pwrite                       integral          1     'h1                                              
#   pstrb                        integral          4     'h1                                              
#   prdata                       integral          32    'h0xxxxxxxx                                      
#   pslverr                      integral          1     'h0X                                             
#   addr_type                    addr_test_type_e  32    ADDR_VALID                                       
#   write_true_flase             write_quality_e   32    WRITE_ADDR_FALSE                                 
#   begin_time                   time              64    602110000                                        
#   depth                        int               32    'd2                                              
#   parent sequence (name)       string            7     apb_seq                                          
#   parent sequence (full name)  string            49    uvm_test_top.env.apb_uvcc.agent.sequencer.apb_seq
#   sequencer                    string            41    uvm_test_top.env.apb_uvcc.agent.sequencer        
# --------------------------------------------------------------------------------------------------------
# 
# UVM_INFO ../apb_uvc/apb_coverage_monitor.sv(94) @ 602150000: uvm_test_top.env.apb_uvcc.agent.monitor [MON] Updating UART Configuration
# UVM_INFO ../tb/apb_uart_scoreboard.sv(112) @ 602150000: uvm_test_top.env.scoreboard [SB_CFG_SYNC] Config updated via APB: DATA_5BIT, STOP_2BIT
# UVM_INFO ../tb/apb_uart_scoreboard.sv(335) @ 602160000: uvm_test_top.env.scoreboard [SB_CFG_HDL] 
# ============CFG Backdoor check PASSED============
# UVM_INFO ../tb/uart_virseqs.sv(82) @ 602350000: uvm_test_top.env.vir_seqr@@one_tx_cfg8.config_vseq [VSEQ] UART Driver remains IDLE (TX Only Mode)
# UVM_INFO ../tb/uart_virseqs.sv(40) @ 602350000: uvm_test_top.env.vir_seqr@@one_tx_cfg8 [VSEQ] 
#####===NUM DATA BIT = DATA_5BIT, NUM STOP BIT = STOP_2BIT, PARITY EN = PARITY_EN, PARITY TYPE = PARITY_EVEN===#####
# UVM_INFO ../tb/uart_virseqs.sv(139) @ 602350000: uvm_test_top.env.vir_seqr@@one_tx_cfg8 [VSEQ] 
#####===Calculation: Data=9 bits, Baud=115200, Tbit=8680.56ns===#####
# UVM_INFO ../apb_uvc/apb_seqs.sv(88) @ 602350000: uvm_test_top.env.apb_uvcc.agent.sequencer@@one_tx_cfg8.apb_write_send_seq [send_tx_data_seq] Send TX with data: 0xac
# UVM_INFO ../apb_uvc/apb_driver.sv(52) @ 602410000: uvm_test_top.env.apb_uvcc.agent.driver [apb_driver] APB Transaction:
# ---------------------------------------------------------------------------------------------------------------
# Name                           Type              Size  Value                                                   
# ---------------------------------------------------------------------------------------------------------------
# req                            apb_transaction   -     @1594                                                   
#   paddr                        integral          12    'h0                                                     
#   pwdata                       integral          32    'hac                                                    
#   pwrite                       integral          1     'h1                                                     
#   pstrb                        integral          4     'h1                                                     
#   prdata                       integral          32    'h0xxxxxxxx                                             
#   pslverr                      integral          1     'h0X                                                    
#   addr_type                    addr_test_type_e  32    ADDR_VALID                                              
#   write_true_flase             write_quality_e   32    WRITE_ADDR_FALSE                                        
#   begin_time                   time              64    602370000                                               
#   depth                        int               32    'd3                                                     
#   parent sequence (name)       string            18    apb_write_send_seq                                      
#   parent sequence (full name)  string            56    uvm_test_top.env.vir_seqr.one_tx_cfg8.apb_write_send_seq
#   sequencer                    string            41    uvm_test_top.env.apb_uvcc.agent.sequencer               
# ---------------------------------------------------------------------------------------------------------------
# 
# UVM_INFO ../apb_uvc/apb_coverage_monitor.sv(93) @ 602410000: uvm_test_top.env.apb_uvcc.agent.monitor [MON] Writing TX Data: 0xac
# UVM_INFO ../tb/apb_uart_scoreboard.sv(89) @ 602410000: uvm_test_top.env.scoreboard [SB_APB] APB->TXDATA queued: 0xac
# UVM_INFO ../apb_uvc/apb_driver.sv(52) @ 602470000: uvm_test_top.env.apb_uvcc.agent.driver [apb_driver] APB Transaction:
# ---------------------------------------------------------------------------------------------------------------
# Name                           Type              Size  Value                                                   
# ---------------------------------------------------------------------------------------------------------------
# req                            apb_transaction   -     @1602                                                   
#   paddr                        integral          12    'hc                                                     
#   pwdata                       integral          32    'h1                                                     
#   pwrite                       integral          1     'h1                                                     
#   pstrb                        integral          4     'h1                                                     
#   prdata                       integral          32    'h0xxxxxxxx                                             
#   pslverr                      integral          1     'h0X                                                    
#   addr_type                    addr_test_type_e  32    ADDR_VALID                                              
#   write_true_flase             write_quality_e   32    WRITE_ADDR_TRUE                                         
#   begin_time                   time              64    602430000                                               
#   depth                        int               32    'd3                                                     
#   parent sequence (name)       string            18    apb_write_send_seq                                      
#   parent sequence (full name)  string            56    uvm_test_top.env.vir_seqr.one_tx_cfg8.apb_write_send_seq
#   sequencer                    string            41    uvm_test_top.env.apb_uvcc.agent.sequencer               
# ---------------------------------------------------------------------------------------------------------------
# 
